CAN_Data
      1)         8.8  Rx         037A  8  00 00 00 00 00 00 00 00 
      2)         9.4  Rx         0243  8  FC 7F FF 5F 99 34 01 4C 
      3)         9.7  Rx         022A  4  00 00 D9 16 
      4)        10.1  Rx         02E1  8  41 0C 03 FF DB 07 00 00 
      5)        10.7  Rx         0129  8  41 26 2E 20 00 20 FF 3F 
      6)        10.9  Rx         039D  5  3F 62 15 28 00 
      7)        11.3  Rx         0132  8  72 8E F8 FF 28 40 FF 0F 
      8)        11.6  Rx         0788  8  01 00 00 00 FF A1 08 00 
      9)        12.5  Rx         03C0  8  04 00 00 00 00 00 00 00 
     10)        12.7  Rx         03C2  8  00 55 55 55 00 00 6A 06 
     11)        13.0  Rx         0400  7  02 A0 69 BE EF FB 00 
     12)        13.2  Rx         0281  6  00 00 FF 1F 00 00 
     13)        14.0  Rx         07A8  8  01 00 00 00 FF A1 08 00 
     14)        14.8  Rx         0359  8  05 00 00 00 00 00 00 00 
     15)        15.0  Rx         039A  8  FE FE FE FE FE FE FE 00 
     16)        15.2  Rx         0201  8  CC 00 00 19 18 18 9E 00 
     17)        16.5  Rx         01F8  4  00 00 00 00 
     18)        16.9  Rx         013D  6  00 00 00 00 FF 00 
     19)        18.4  Rx         0103  8  22 33 00 00 80 08 21 32 
     20)        18.8  Rx         0273  8  80 E1 10 40 C8 01 30 12 
     21)        19.1  Rx         02C1  8  01 0E 4B 1C 32 00 64 00 
     22)        19.6  Rx         0288  8  03 93 06 58 A6 65 B0 39 
     23)        20.7  Rx         0129  8  56 27 2E 20 00 20 FF 3F 
     24)        20.9  Rx         038A  8  00 00 00 00 00 00 00 00 
     25)        21.3  Rx         0132  8  70 8E F7 FF 26 40 FF 0F 
     26)        21.5  Rx         0372  8  01 97 99 00 50 00 3C 01 
     27)        22.0  Rx         0228  8  03 0B 06 58 A6 65 B0 51 
     28)        22.6  Rx         01FB  8  01 FE FF B7 6D 0B 00 00 
     29)        23.1  Rx         0340  8  06 00 00 00 00 00 00 00 
     30)        23.4  Rx         0381  8  0E 00 00 00 00 00 00 00 
     31)        24.4  Rx         0123  8  00 00 12 12 D2 00 00 00 
     32)        24.7  Rx         0263  8  02 00 00 00 F7 10 00 00 
     33)        25.1  Rx         078A  8  01 00 04 00 00 00 62 06 
     34)        25.6  Rx         03E2  8  00 00 00 00 00 00 00 04 
     35)        25.9  Rx         07AA  8  36 03 B0 BD 80 19 A2 02 
     36)        26.8  Rx         013D  6  00 00 00 00 FF 00 
     37)        27.1  Rx         02E1  8  02 00 00 00 00 00 01 00 
     38)        27.6  Rx         06C8  8  01 00 00 00 00 00 00 00 
     39)        29.1  Rx         0201  8  CD 00 00 19 18 18 9E 00 
     40)        29.7  Rx         023E  8  F4 01 3A ED FA FC CF 21 
     41)        30.0  Rx         06E8  8  01 00 00 00 00 00 00 00 
     42)        30.4  Rx         03A3  5  14 D0 00 00 08 
     43)        30.7  Rx         0129  8  81 28 2E 20 00 20 FF 3F 
     44)        31.1  Rx         02C1  8  12 A5 41 41 00 10 03 00 
     45)        31.4  Rx         0132  8  6A 8E F7 FF 26 40 FF 0F 
     46)        32.6  Rx         0272  8  09 80 63 00 00 00 00 00 
     47)        33.1  Rx         0241  7  35 64 1C 0F 1E 5B 00 
     48)        33.3  Rx         0545  8  1E 00 3B E0 98 8E A9 52 
     49)        34.6  Rx         04E2  8  03 00 00 00 00 00 08 00 
     50)        35.6  Rx         02A8  8  02 10 00 00 00 00 D0 8C 
     51)        36.5  Rx         020C  8  00 A0 37 1A 00 00 00 00 
     52)        36.9  Rx         013D  6  00 00 00 00 FF 00 
     53)        38.0  Rx         02E8  8  02 10 00 00 00 00 C0 BC 
     54)        38.8  Rx         02F9  8  84 FB 07 C0 F0 F6 10 02 
     55)        39.4  Rx         0243  8  01 FC 37 FF 36 FF 76 76 
     56)        40.2  Rx         0247  8  3F 0E FF 00 00 00 00 00 
     57)        40.4  Rx         0227  8  00 00 00 00 4A 00 00 80 
     58)        40.7  Rx         0129  8  D4 29 2E 20 00 20 FF 3F 
     59)        40.9  Rx         0249  4  83 05 00 00 
     60)        41.3  Rx         0132  8  71 8E F8 FF 26 40 FF 0F 
     61)        42.3  Rx         03E3  2  00 00 
     62)        42.6  Rx         0282  8  A5 21 0C 18 54 01 40 2F 
     63)        43.1  Rx         02F1  8  09 01 00 00 00 98 00 28 
     64)        43.3  Rx         0201  8  CE 00 00 19 18 18 9E 00 
     65)        43.6  Rx         0262  8  0B 00 D3 AC 00 B0 90 10 
     66)        43.8  Rx         02C1  8  03 00 40 66 00 C0 29 00 
     67)        44.0  Rx         0428  6  00 00 10 10 00 00 
     68)        44.3  Rx         02E1  8  03 6D 99 02 9F 5F 00 00 
     69)        44.5  Rx         0393  8  06 00 08 E9 07 C0 1E 20 
     70)        44.8  Rx         03F9  8  00 00 00 00 00 00 00 00 
     71)        45.1  Rx         039A  8  FF FE FE FE FE 00 00 00 
     72)        46.0  Rx         0448  6  00 00 10 10 00 00 
     73)        46.8  Rx         013D  6  00 00 00 00 FF 00 
     74)        48.4  Rx         04E3  8  03 00 00 00 00 00 08 00 
     75)        50.7  Rx         0129  8  0B 2A 2E 20 00 20 FF 3F 
     76)        50.9  Rx         0339  8  C0 E1 00 00 00 01 40 0F 
     77)        51.1  Rx         039D  5  40 63 15 28 00 
     78)        51.3  Rx         0132  8  73 8E F7 FF 27 40 FF 0F 
     79)        52.6  Rx         0422  6  70 00 10 00 00 00 
     80)        52.8  Rx         03A2  8  51 05 00 00 00 00 00 00 
     81)        53.2  Rx         03F5  8  00 00 00 00 00 00 00 00 
     82)        54.4  Rx         02E3  7  03 00 00 51 C2 02 00 
     83)        54.7  Rx         0263  8  03 00 00 00 00 00 00 00 
     84)        55.1  Rx         02C1  8  04 CA 3F 03 E4 30 60 47 
     85)        56.6  Rx         0719  1  10 
     86)        56.8  Rx         013D  6  00 00 00 00 FF 00 
     87)        57.1  Rx         0201  8  B0 04 1E 4B 98 25 03 00 
     88)        58.1  Rx         0221  8  20 41 09 1A 00 50 91 88 
     89)        60.4  Rx         0343  8  00 90 60 DE 96 00 00 00 
     90)        60.7  Rx         0129  8  FA 2B 2E 20 00 20 FF 3F 
     91)        61.1  Rx         02E1  8  44 0D 00 20 11 03 EE FF 
     92)        61.4  Rx         0132  8  72 8E F8 FF 29 40 FF 0F 
     93)        61.6  Rx         02C2  8  00 00 00 97 01 00 C0 65 
     94)        62.6  Rx         02E2  8  E2 31 39 F9 41 49 09 00 
     95)        62.7  Rx         01F9  1  00 
     96)        63.0  Rx         03C2  8  29 55 00 00 00 00 00 00 
     97)        63.1  Rx         02D1  2  FF 01 
     98)        66.1  Rx         0381  8  0F 00 00 00 00 00 00 00 
     99)        66.5  Rx         03C3  7  55 55 55 00 00 A2 00 
    100)        66.9  Rx         013D  6  00 00 00 00 FF 00 
    101)        67.2  Rx         02C1  8  05 00 00 00 00 00 00 00 
    102)        67.4  Rx         0113  3  01 97 01 
    103)        67.6  Rx         07FF  8  01 41 52 4B 01 04 15 01 
    104)        67.9  Rx         0318  8  15 05 09 06 03 2E 11 86 
    105)        68.1  Rx         0458  7  00 00 10 00 00 00 00 
    106)        68.6  Rx         0284  5  10 00 00 00 00 
    107)        68.8  Rx         0439  8  02 04 10 00 00 00 00 00 
    108)        69.1  Rx         0285  8  41 02 93 01 00 00 00 00 
    109)        69.2  Rx         03D8  2  4B 00 
    110)        69.5  Rx         0243  8  FE FF 23 0F 00 00 00 00 
    111)        69.8  Rx         023E  8  F4 01 3A ED FA FC DF 31 
    112)        70.7  Rx         0129  8  9A 2C 2E 20 00 20 FF 3F 
    113)        71.1  Rx         0201  8  C9 64 64 FF FF 17 9E 00 
    114)        71.3  Rx         0132  8  6E 8E F8 FF 27 40 FF 0F 
    115)        71.5  Rx         01FA  3  22 C0 01 
    116)        72.1  Rx         0207  8  00 00 00 00 00 00 00 00 
    117)        72.4  Rx         0383  8  9F 00 1E 00 91 00 62 28 
    118)        72.7  Rx         01FB  8  F0 FF FF FF FF FF FF FF 
    119)        73.1  Rx         0421  7  00 0A 00 10 00 00 00 
    120)        74.7  Rx         0119  2  00 00 
    121)        74.9  Rx         039A  8  FE FE FE FE FE FE FE 00 
    122)        76.8  Rx         013D  6  00 00 00 00 FF 00 
    123)        78.0  Rx         02D2  8  30 2F B7 4E 00 00 A1 01 
    124)        78.2  Rx         0212  8  98 04 1E 0D 02 FF 3F 02 
    125)        78.5  Rx         0252  8  00 00 BC 06 00 00 00 00 
    126)        78.7  Rx         0292  8  11 D6 87 A1 85 0A FB 01 
    127)        78.9  Rx         02E1  8  FD 1B 80 49 97 7F 09 00 
    128)        79.2  Rx         02C1  8  06 00 00 00 40 00 00 00 
    129)        79.3  Rx         02F2  2  12 01 
    130)        79.6  Rx         0392  8  00 0C 00 00 00 00 00 00 
    131)        79.8  Rx         0423  6  00 00 10 00 00 00 
    132)        80.0  Rx         0782  8  0F 7A C0 1D 90 07 C8 01 
    133)        80.5  Rx         0242  2  20 45 
    134)        80.7  Rx         0129  8  88 2D 2E 20 00 20 FF 3F 
    135)        81.3  Rx         0132  8  71 8E F8 FF 28 40 FF 0F 
    136)        82.6  Rx         0272  8  06 00 03 D9 07 C0 1E 20 
    137)        83.2  Rx         03A1  8  C5 42 31 C5 08 14 62 1F 
    138)        83.4  Rx         0545  8  03 19 64 32 19 00 B0 C5 
    139)        84.4  Rx         02C3  8  00 00 00 27 01 00 C0 65 
    140)        84.7  Rx         0263  8  00 B1 51 DC FA 7D 17 FA 
    141)        84.9  Rx         02B3  8  49 17 40 02 C8 84 6F 67 
    142)        85.2  Rx         0201  8  E2 54 20 C0 04 F8 7C 09 
    143)        87.0  Rx         021D  8  04 00 04 00 00 00 00 00 
    144)        87.1  Rx         041D  1  00 
    145)        87.3  Rx         013D  6  00 00 00 00 FF 00 
    146)        87.7  Rx         025D  8  C4 48 01 B9 40 61 01 C0 
    147)        87.9  Rx         043D  6  00 00 00 00 FF 00 
    148)        88.2  Rx         027D  8  00 00 00 00 00 00 00 00 
    149)        88.4  Rx         029D  4  00 00 00 20 
    150)        88.7  Rx         075D  8  95 F3 3F BE 00 00 00 00 
    151)        89.3  Rx         02BD  4  00 00 00 00 
    152)        89.6  Rx         0360  8  06 00 00 00 00 00 00 00 
    153)        89.8  Rx         077D  3  11 00 00 
    154)        89.9  Rx         07DD  2  FF 00 
    155)        90.7  Rx         0129  8  57 2E 2E 20 00 20 FF 3F 
    156)        90.9  Rx         0379  8  06 E0 1F 7B 5A 00 00 00 
    157)        91.0  Rx         0229  3  2F 0D 00 
    158)        91.3  Rx         0132  8  77 8E F8 FF 27 40 FF 0F 
    159)        91.5  Rx         0249  4  4C 06 00 00 
    160)        91.7  Rx         02C1  8  07 00 00 00 00 00 00 00 
    161)        91.9  Rx         0372  8  02 70 00 9A 00 02 00 00 
    162)        92.2  Rx         039D  5  41 64 15 28 00 
    163)        92.4  Rx         054F  8  00 00 00 00 00 00 00 00 
    164)        92.6  Rx         0282  8  08 00 00 00 F0 F3 F3 24 
    165)        92.9  Rx         02C4  8  13 A1 00 3D 8E 10 12 00 
    166)        93.1  Rx         0204  8  01 00 00 FF 00 00 00 00 
    167)        93.4  Rx         0261  8  81 19 C8 0C EB 7F D4 FF 
    168)        93.6  Rx         0224  8  04 08 00 40 19 01 10 08 
    169)        93.8  Rx         0264  6  39 00 00 00 E0 01 
    170)        94.0  Rx         02B4  5  54 E9 26 BE 00 
    171)        94.5  Rx         0393  8  09 80 63 00 00 00 00 00 
    172)        95.1  Rx         02E1  8  10 21 04 BE 16 84 00 06 
    173)        96.6  Rx         0139  1  00 
    174)        96.9  Rx         013D  6  00 00 00 00 FF 00 
    175)        97.1  Rx         0287  8  34 38 33 35 DA 02 00 00 
    176)        98.6  Rx         0102  8  22 33 00 00 C2 0E A1 09 
    177)        99.1  Rx         0201  8  CB 00 00 19 18 18 9E 00 
    178)        99.4  Rx         0243  8  FC 7F FF 5F 99 34 01 4C 
    179)       100.4  Rx         0225  3  11 06 32 
    180)       100.7  Rx         0129  8  A6 2F 2E 20 00 20 FF 3F 
    181)       101.3  Rx         0132  8  74 8E F8 FF 27 40 FF 0F 
    182)       102.6  Rx         03A2  8  00 00 F3 B6 04 00 C2 70 
    183)       102.9  Rx         03DA  8  00 00 00 00 00 00 00 00 
    184)       103.1  Rx         02C1  8  60 49 3C 0A 91 1F 00 00 
    185)       103.6  Rx         03C8  8  06 00 00 00 00 00 00 00 
    186)       104.8  Rx         039A  8  FF FE FE FE FE 00 00 00 
    187)       105.0  Rx         0419  1  00 
    188)       106.0  Rx         03E8  8  06 00 00 00 00 00 00 00 
    189)       106.4  Rx         0283  6  00 00 00 00 40 00 
    190)       106.8  Rx         013D  6  00 00 00 00 FF 00 
    191)       107.6  Rx         0122  6  00 00 12 12 D2 00 
    192)       107.9  Rx         0409  1  20 
    193)       108.2  Rx         0221  8  21 01 55 00 00 00 A0 3A 
    194)       108.8  Rx         037A  8  01 00 00 00 00 00 00 00 
    195)       109.1  Rx         0381  8  10 00 00 00 00 00 00 00 
    196)       109.7  Rx         023E  8  F4 01 3A ED FA FC EF 41 
    197)       109.9  Rx         022A  4  00 00 D9 16 
    198)       110.7  Rx         0129  8  43 20 2E 20 00 20 FF 3F 
    199)       111.3  Rx         0132  8  77 8E F8 FF 28 40 FF 0F 
    200)       111.6  Rx         0788  8  0E 1F 13 05 00 00 00 00 
    201)       112.1  Rx         02E1  8  41 0C 03 FF DB 07 00 00 
    202)       112.4  Rx         03C0  8  05 00 01 00 00 00 00 00 
    203)       112.7  Rx         03C2  8  00 55 55 55 00 00 6A 06 
    204)       113.0  Rx         0400  7  02 A0 69 BE EF FB 00 
    205)       113.2  Rx         0201  8  CC 00 00 19 18 18 9E 00 
    206)       113.4  Rx         0281  6  00 00 FF 1F 00 00 
    207)       114.0  Rx         07A8  8  EA 1E 13 F5 00 00 00 00 
    208)       114.4  Rx         0263  8  01 B1 4E DD F9 7E 14 FA 
    209)       114.8  Rx         0359  8  06 00 00 00 C3 DB 43 08 
    210)       115.1  Rx         02C1  8  01 0E 4B 1C 33 00 64 00 
    211)       116.5  Rx         01F8  4  00 00 00 00 
    212)       116.9  Rx         013D  6  00 00 00 00 FF 00 
    213)       118.4  Rx         0103  8  22 33 00 00 80 08 21 32 
    214)       118.7  Rx         0405  8  11 33 45 31 45 42 30 4C 
    215)       118.9  Rx         0353  8  5B 0F 39 80 02 16 D8 00 
    216)       119.1  Rx         0285  8  02 D3 00 00 00 00 AA 00 
    217)       119.6  Rx         0288  8  03 93 06 58 A6 65 C0 49 
    218)       120.7  Rx         0129  8  54 21 2E 20 00 20 FF 3F 
    219)       120.9  Rx         038A  8  01 00 00 00 00 00 00 00 
    220)       121.3  Rx         0132  8  75 8E F7 FF 27 40 FF 0F 
    221)       122.0  Rx         0228  8  03 0B 06 58 A6 65 C0 61 
    222)       122.6  Rx         01FB  8  01 FE FF B7 6D 0B 00 00 
    223)       123.1  Rx         0340  8  07 00 00 00 00 00 00 00 
    224)       124.5  Rx         0123  8  00 00 12 12 D2 00 00 00 
    225)       125.1  Rx         078A  8  01 00 05 00 00 00 61 06 
    226)       125.3  Rx         0310  8  12 02 55 25 24 26 04 63 
    227)       125.6  Rx         03E2  8  00 00 00 00 00 00 00 04 
    228)       125.9  Rx         03AA  8  00 00 00 00 00 00 00 00 
    229)       126.1  Rx         07AA  8  07 F8 FF F8 FF F3 FF 00 
    230)       127.1  Rx         02C1  8  12 A5 41 41 00 10 03 00 
    231)       127.4  Rx         0201  8  CD 00 00 19 18 18 9E 00 
    232)       127.6  Rx         013D  6  00 00 00 00 FF 00 
    233)       127.8  Rx         06C8  8  DC 0B 00 FC 01 00 00 00 
    234)       129.1  Rx         02E1  8  02 00 00 00 00 00 01 00 
    235)       129.4  Rx         0243  8  01 FC 37 FF 36 FF 76 76 
    236)       130.0  Rx         06E8  8  D8 0B 00 FB 01 00 00 00 
    237)       130.4  Rx         03A3  5  14 D0 00 00 08 
    238)       130.7  Rx         0129  8  1D 22 2E 20 00 20 FF 3F 
    239)       130.9  Rx         039D  5  42 65 15 28 00 
    240)       131.3  Rx         0132  8  78 8E F8 FF 27 40 FF 0F 
    241)       132.6  Rx         0272  8  09 80 63 00 00 00 00 00 
    242)       133.1  Rx         0241  7  37 64 1C 0F 1E 5B 00 
    243)       133.3  Rx         0545  8  1E 00 3B F0 98 8F C9 83 
    244)       134.6  Rx         04E2  8  04 00 57 00 45 00 00 00 
    245)       134.8  Rx         039A  8  FE FE FE FE FE FE FE 00 
    246)       135.6  Rx         02A8  8  02 10 00 00 00 00 E0 9C 
    247)       136.4  Rx         020C  8  00 C0 37 1A 00 00 00 00 
    248)       136.9  Rx         013D  6  00 00 00 00 FF 00 
    249)       138.0  Rx         02E8  8  02 10 00 00 00 00 D0 CC 
    250)       138.8  Rx         02F9  8  84 FB 07 08 00 00 00 00 
    251)       139.1  Rx         02C1  8  03 00 40 66 00 C0 29 00 
    252)       140.3  Rx         0247  8  3F 0E FF 00 00 00 00 00 
    253)       140.6  Rx         0227  8  00 00 00 00 4A 00 00 80 
    254)       140.8  Rx         0129  8  0A 23 2E 20 00 20 FF 3F 
    255)       141.0  Rx         0249  4  5E 07 00 00 
    256)       141.2  Rx         0201  8  CE 00 00 19 18 18 9E 00 
    257)       141.4  Rx         0132  8  75 8E F8 FF 28 40 FF 0F 
    258)       142.3  Rx         03E3  2  00 00 
    259)       142.6  Rx         0282  8  A5 21 0C 18 88 00 40 2F 
    260)       143.1  Rx         02F1  8  0A B1 01 00 00 00 28 28 
    261)       143.6  Rx         0262  8  0B 00 D3 AC 00 B0 90 10 
    262)       143.8  Rx         0428  6  00 00 10 10 00 00 
    263)       144.5  Rx         0263  8  02 00 00 00 F7 10 00 00 
    264)       144.7  Rx         0393  8  06 00 06 E9 07 C0 1E 20 
    265)       144.9  Rx         03F9  8  01 00 00 00 00 00 00 00 
    266)       146.0  Rx         0448  6  00 00 10 10 00 00 
    267)       146.2  Rx         02E1  8  03 6D 99 02 9F 5F 00 00 
    268)       146.8  Rx         013D  6  00 00 00 00 FF 00 
    269)       148.4  Rx         04E3  8  04 00 21 00 39 00 00 00 
    270)       149.1  Rx         0301  8  0A F9 09 00 08 00 86 00 
    271)       149.6  Rx         023E  8  F4 01 3A ED FA FC FF 51 
    272)       150.7  Rx         0129  8  8C 24 2E 20 00 20 FF 3F 
    273)       150.9  Rx         0339  8  C0 E1 00 00 00 01 40 0F 
    274)       151.2  Rx         02C1  8  04 CA 3F 03 E4 30 60 47 
    275)       151.4  Rx         0132  8  76 8E F8 FF 26 40 FF 0F 
    276)       152.1  Rx         0381  8  11 00 00 00 00 00 00 00 
    277)       152.6  Rx         0422  6  70 00 10 00 00 00 
    278)       152.8  Rx         03A2  8  55 05 00 00 00 00 00 00 
    279)       153.1  Rx         03F5  8  00 00 00 00 00 00 00 00 
    280)       154.4  Rx         02E3  7  44 5F 4A 2A AD 04 00 
    281)       155.1  Rx         0201  8  C8 04 1E 49 98 25 03 00 
    282)       156.6  Rx         0719  1  10 
    283)       156.8  Rx         013D  6  00 00 00 00 FF 00 
    284)       158.1  Rx         0221  8  20 41 09 1A 00 50 B1 A8 
    285)       159.4  Rx         0243  8  FE FF 1B 0F 00 00 00 00 
    286)       160.4  Rx         0343  8  00 90 5C 3E 97 00 00 00 
    287)       160.7  Rx         0129  8  36 25 2E 20 01 20 FF 3F 
    288)       161.3  Rx         0132  8  78 8E F8 FF 28 40 FF 0F 
    289)       161.5  Rx         0372  8  03 10 01 00 00 00 00 00 
    290)       161.7  Rx         02C2  8  55 5B A9 B6 02 00 92 00 
    291)       162.6  Rx         03C2  8  29 55 00 00 00 00 00 00 
    292)       162.7  Rx         01F9  1  00 
    293)       163.0  Rx         02D1  2  FF 01 
    294)       163.3  Rx         02C1  8  05 00 00 00 00 00 00 00 
    295)       163.5  Rx         02E1  8  44 0D 00 20 11 03 EE FF 
    296)       164.8  Rx         039A  8  FF FE FE FE FE 00 00 00 
    297)       166.4  Rx         03C3  7  55 55 55 00 00 A2 00 
    298)       166.9  Rx         013D  6  00 00 00 00 FF 00 
    299)       167.4  Rx         0113  3  01 97 01 
    300)       167.6  Rx         07FF  8  02 46 96 24 44 51 DE 24 
    301)       167.8  Rx         0318  8  15 05 09 06 03 2E 13 88 
    302)       168.1  Rx         0458  7  00 00 10 00 00 00 00 
    303)       168.4  Rx         0313  8  02 64 64 01 00 00 E0 C1 
    304)       168.7  Rx         02D3  8  02 01 BB 03 2A FE 15 53 
    305)       168.9  Rx         0439  8  02 04 10 00 00 00 00 00 
    306)       169.1  Rx         0201  8  C9 64 64 FF FF 17 9E 00 
    307)       169.7  Rx         0285  8  03 60 87 40 85 00 00 00 
    308)       170.7  Rx         0129  8  41 26 2E 20 00 20 FF 3F 
    309)       170.9  Rx         039D  5  43 66 15 28 00 
    310)       171.3  Rx         0132  8  78 8E F8 FF 28 40 FF 0F 
    311)       171.5  Rx         01FA  3  22 C0 01 
    312)       171.8  Rx         0207  8  00 00 00 00 00 00 00 00 
    313)       172.5  Rx         0383  8  9F 00 1E 00 91 00 62 28 
    314)       172.7  Rx         01FB  8  F0 FF FF FF FF FF FF FF 
    315)       173.1  Rx         0421  7  00 0A 00 10 00 00 00 
    316)       174.5  Rx         0263  8  03 00 00 00 00 00 00 00 
    317)       174.7  Rx         02B3  8  4A 69 12 25 4A 16 00 6B 
    318)       174.8  Rx         0119  2  00 00 
    319)       175.1  Rx         02C1  8  06 00 00 00 40 00 00 00 
    320)       176.9  Rx         013D  6  00 00 00 00 FF 00 
    321)       178.4  Rx         0423  6  00 00 10 00 00 00 
    322)       179.0  Rx         02D2  8  30 2F B7 4E 00 00 A1 01 
    323)       179.3  Rx         0212  8  98 04 1E 0D 02 FF 3F 02 
    324)       179.5  Rx         0252  8  00 00 BC 06 00 00 00 00 
    325)       179.8  Rx         0292  8  11 D6 87 A1 85 0A FB 01 
    326)       179.9  Rx         02F2  2  12 01 
    327)       180.2  Rx         02E1  8  FD 1B 81 49 97 7B 09 00 
    328)       180.5  Rx         0242  2  20 45 
    329)       180.7  Rx         0129  8  56 27 2E 20 00 20 FF 3F 
    330)       181.3  Rx         0132  8  7B 8E F8 FF 28 40 FF 0F 
    331)       182.6  Rx         0272  8  06 00 03 D9 07 C0 1E 20 
    332)       183.2  Rx         03A1  8  C5 42 31 C5 08 14 72 2F 
    333)       183.4  Rx         0201  8  E2 54 20 C0 04 F8 7C 09 
    334)       183.6  Rx         0545  8  03 19 64 32 19 00 D0 E5 
    335)       184.4  Rx         02C3  8  55 63 A8 B6 02 00 98 00 
    336)       187.0  Rx         021D  8  04 00 04 00 00 00 00 00 
    337)       187.2  Rx         02C1  8  07 00 00 00 00 00 00 00 
    338)       187.4  Rx         013D  6  00 00 00 00 FF 00 
    339)       187.6  Rx         041D  1  00 
    340)       187.8  Rx         025D  8  C4 48 01 B9 40 61 01 C0 
    341)       188.0  Rx         027D  8  00 00 00 00 00 00 00 00 
    342)       188.2  Rx         043D  6  00 00 00 00 FF 00 
    343)       188.4  Rx         029D  4  00 00 00 20 
    344)       188.6  Rx         077D  3  11 00 00 
    345)       189.2  Rx         02BD  4  00 00 00 00 
    346)       189.5  Rx         0243  8  FC 7F FF 5F 99 34 01 4C 
    347)       189.7  Rx         023E  8  F4 01 3A ED FA FC 0F 61 
    348)       189.9  Rx         0360  8  07 00 00 00 00 00 00 00 
    349)       190.1  Rx         07DD  2  FF 00 
    350)       190.7  Rx         0129  8  81 28 2E 20 00 20 FF 3F 
    351)       190.9  Rx         0379  8  07 00 3F F4 5F 00 00 00 
    352)       191.1  Rx         0229  3  31 0E 00 
    353)       191.3  Rx         0132  8  7F 8E F8 FF 28 40 FF 0F 
    354)       191.5  Rx         0249  4  3F 08 00 00 
    355)       191.7  Rx         054F  8  00 00 00 00 00 00 00 00 
    356)       192.6  Rx         0282  8  08 00 00 00 F0 F3 F3 24 
    357)       192.9  Rx         02C4  8  14 00 00 00 00 00 00 00 
    358)       193.1  Rx         0204  8  01 00 00 FF 00 00 00 00 
    359)       193.3  Rx         0261  8  7F 19 C8 0C EB 7F DC FF 
    360)       193.6  Rx         0224  8  04 08 00 40 19 01 10 08 
    361)       193.8  Rx         0264  6  38 00 00 00 E0 01 
    362)       194.0  Rx         02B4  5  54 E9 26 BB 00 
    363)       194.3  Rx         02A4  8  A7 2F 3D E6 5B 6F FD 43 
    364)       194.6  Rx         0393  8  09 80 63 00 00 00 00 00 
    365)       194.7  Rx         0364  2  3C 78 
    366)       194.9  Rx         039A  8  FE FE FE FE FE FE FE 00 
    367)       195.2  Rx         0381  8  12 00 00 00 00 00 27 01 
    368)       195.4  Rx         03A4  8  01 00 00 00 00 00 00 00 
    369)       195.7  Rx         07C8  8  0A F9 08 00 07 00 1F 00 
    370)       196.6  Rx         0139  1  00 
    371)       196.9  Rx         013D  6  00 00 00 00 FF 00 
    372)       197.1  Rx         0201  8  CB 00 00 19 18 18 9E 00 
    373)       197.4  Rx         02E1  8  10 21 04 BE 16 84 00 06 
    374)       197.6  Rx         0287  8  34 38 33 35 DA 02 00 00 
    375)       198.6  Rx         0102  8  22 33 00 00 C2 0E A1 09 
    376)       199.1  Rx         02C1  8  60 49 3C 0A 91 1F 00 00 
    377)       200.3  Rx         0225  3  11 06 32 
    378)       200.7  Rx         0129  8  D4 29 2E 20 00 20 FF 3F 
    379)       201.3  Rx         0132  8  76 8E F8 FF 29 40 FF 0F 
    380)       202.6  Rx         03A2  8  00 C0 F2 B6 04 00 C2 70 
    381)       202.8  Rx         03DA  8  00 00 00 00 00 00 00 00 
    382)       203.6  Rx         03C8  8  00 00 00 00 00 00 00 00 
    383)       204.5  Rx         0263  8  00 B1 51 DC FA 7D 17 FA 
    384)       205.1  Rx         0419  1  00 
    385)       206.0  Rx         03E8  8  00 00 00 00 00 00 00 00 
    386)       206.4  Rx         0283  6  00 00 00 00 40 00 
    387)       206.8  Rx         013D  6  00 00 00 00 FF 00 
    388)       207.6  Rx         0122  6  00 00 12 12 D2 00 
    389)       207.9  Rx         0409  1  20 
    390)       208.2  Rx         0221  8  21 01 55 00 00 00 C0 5A 
    391)       208.8  Rx         037A  8  02 00 00 00 00 00 00 00 
    392)       209.7  Rx         022A  4  00 00 D9 16 
    393)       210.7  Rx         0129  8  A6 2A 2E 20 01 20 FF 3F 
    394)       210.9  Rx         039D  5  44 67 15 28 00 
    395)       211.2  Rx         02C1  8  01 0E 4B 1C 32 00 64 00 
    396)       211.4  Rx         0132  8  7A 8E F8 FF 26 40 FF 0F 
    397)       211.6  Rx         0201  8  CC 00 00 19 18 18 9E 00 
    398)       211.8  Rx         0788  8  B8 D4 B1 43 04 00 00 00 
    399)       212.4  Rx         03C0  8  06 00 00 00 00 00 00 00 
    400)       212.7  Rx         0302  8  0A F9 0D 00 0C 00 23 00 
    401)       212.9  Rx         03C2  8  00 55 55 55 00 00 6A 06 
    402)       213.1  Rx         0281  6  00 00 FF 1F 00 00 
    403)       213.3  Rx         0400  7  02 A0 69 BE EF FB 00 
    404)       214.1  Rx         07A8  8  BC D4 C1 43 04 00 00 00 
    405)       214.3  Rx         02E1  8  41 0C 03 FF DB 07 00 00 
    406)       214.8  Rx         0359  8  07 00 00 00 7F 00 00 00 
    407)       216.5  Rx         01F8  4  00 00 00 00 
    408)       216.9  Rx         013D  6  00 00 00 00 FF 00 
    409)       218.4  Rx         0103  8  22 33 00 00 80 08 21 32 
    410)       219.1  Rx         0293  8  00 0C 15 00 55 04 EF FE 
    411)       219.3  Rx         0253  7  64 87 4E 64 7F C8 03 
    412)       219.6  Rx         0243  8  01 FC 37 FF 36 FF 76 76 
    413)       219.8  Rx         0288  8  03 93 06 58 A6 65 D0 59 
    414)       220.7  Rx         0129  8  FA 2B 2E 20 00 20 FF 3F 
    415)       220.9  Rx         038A  8  03 00 00 00 00 00 00 00 
    416)       221.3  Rx         0132  8  7B 8E F8 FF 27 40 FF 0F 
    417)       222.0  Rx         0228  8  03 0B 06 58 A6 65 D0 71 
    418)       222.6  Rx         01FB  8  01 FE FF B7 6D 0B 00 00 
    419)       223.1  Rx         0340  8  00 00 00 00 00 00 00 00 
    420)       223.4  Rx         02C1  8  12 A5 41 41 00 10 03 00 
    421)       224.5  Rx         0123  8  00 00 12 12 D2 00 00 00 
    422)       224.8  Rx         039A  8  FF FE FE FE FE 00 00 00 
    423)       225.1  Rx         076A  8  00 18 0C 06 03 00 00 00 
    424)       225.3  Rx         0201  8  CD 00 00 19 18 18 9E 00 
    425)       225.6  Rx         03E2  8  00 00 00 00 00 00 00 04 
    426)       225.8  Rx         077A  8  00 2F 13 00 80 0D 00 00 
    427)       226.1  Rx         07AA  8  C0 EB CE F4 00 00 00 00 
    428)       226.3  Rx         078A  8  01 00 06 00 00 00 05 00 
    429)       226.8  Rx         013D  6  00 00 00 00 FF 00 
    430)       227.6  Rx         06C8  8  01 00 00 00 00 00 00 00 
    431)       229.6  Rx         023E  8  F4 01 3A ED FA FC 1F 71 
    432)       230.1  Rx         06E8  8  01 00 00 00 00 00 00 00 
    433)       230.4  Rx         03A3  5  12 D0 00 00 08 
    434)       230.7  Rx         0129  8  F3 2C 2E 20 FF 1F FF 3F 
    435)       231.1  Rx         02E1  8  02 00 00 00 00 00 01 00 
    436)       231.4  Rx         0132  8  7C 8E F7 FF 26 40 FF 0F 
    437)       231.6  Rx         0372  8  04 00 A5 00 8B 4E A5 00 
    438)       232.6  Rx         0272  8  09 80 63 00 00 00 00 00 
    439)       233.1  Rx         0241  7  35 64 1C 0F 1E 5B 00 
    440)       233.3  Rx         0545  8  1E 00 3B A0 98 8E E9 52 
    441)       234.4  Rx         0263  8  01 B1 4E DD F9 7E 14 FA 
    442)       234.7  Rx         04E2  8  45 04 93 21 00 00 00 00 
    443)       234.9  Rx         034A  8  01 07 00 00 00 00 00 60 
    444)       235.2  Rx         02C1  8  03 00 40 66 00 C0 29 00 
    445)       235.4  Rx         043B  8  02 7F 00 FF 00 00 00 00 
    446)       235.6  Rx         02A8  8  02 10 00 00 00 00 F0 AC 
    447)       236.5  Rx         020C  8  00 C0 37 1A 00 00 00 00 
    448)       236.9  Rx         013D  6  00 00 00 00 FF 00 
    449)       238.0  Rx         02E8  8  02 10 00 00 00 00 E0 DC 
    450)       238.3  Rx         0381  8  13 00 00 F9 2C 00 00 00 
    451)       238.8  Rx         02F9  8  84 FB 07 10 00 00 00 00 
    452)       239.1  Rx         0201  8  CE 00 00 19 18 18 9E 00 
    453)       240.4  Rx         0247  8  3E 0E FF 00 00 00 00 00 
    454)       240.7  Rx         0227  8  00 00 00 00 4A 00 00 80 
    455)       240.9  Rx         0129  8  88 2D 2E 20 00 20 FF 3F 
    456)       241.1  Rx         0249  4  5E 09 00 00 
    457)       241.4  Rx         0132  8  74 8E F7 FF 28 40 FF 0F 
    458)       242.3  Rx         03E3  2  00 00 
    459)       242.6  Rx         0282  8  A5 21 0C 18 64 02 40 2F 
    460)       243.1  Rx         02F1  8  2B 04 00 01 0F 00 28 28 
    461)       243.6  Rx         0262  8  0B 00 D3 AC 00 B0 90 10 
    462)       243.8  Rx         0428  6  00 00 10 10 00 00 
    463)       244.4  Rx         0303  8  0A F9 08 00 07 00 24 00 
    464)       244.7  Rx         0393  8  06 00 07 E9 07 C0 1E 20 
    465)       244.9  Rx         03F9  8  02 00 80 00 00 00 00 00 
    466)       246.0  Rx         0448  6  00 00 10 10 00 00 
    467)       246.8  Rx         013D  6  00 00 00 00 FF 00 
    468)       247.1  Rx         02C1  8  04 CA 3F 03 E4 30 60 47 
    469)       248.1  Rx         02E1  8  03 6D 99 02 9F 5F 00 00 
    470)       248.4  Rx         04E3  8  3D 06 50 61 00 00 00 00 
    471)       249.4  Rx         0243  8  FE FF 1B 0F 00 00 00 00 
    472)       250.7  Rx         0129  8  57 2E 2E 20 00 20 FF 3F 
    473)       250.9  Rx         0339  8  C0 E1 00 00 00 01 40 0F 
    474)       251.1  Rx         039D  5  24 68 F5 27 00 
    475)       251.3  Rx         0132  8  72 8E F7 FF 27 40 FF 0F 
    476)       252.6  Rx         0422  6  70 00 10 00 00 00 
    477)       252.8  Rx         03A2  8  55 05 00 00 00 00 00 00 
    478)       253.1  Rx         03F5  8  00 00 00 00 00 00 00 00 
    479)       253.4  Rx         0201  8  B0 04 1E 49 98 25 03 00 
    480)       254.4  Rx         02E3  7  07 D4 4F 3F 01 00 00 
    481)       254.8  Rx         039A  8  FE FE FE FE FE FE FE 00 
    482)       256.6  Rx         0719  1  10 
    483)       256.8  Rx         013D  6  00 00 00 00 FF 00 
    484)       258.1  Rx         0221  8  20 41 09 1A 00 50 D1 C8 
    485)       259.1  Rx         02C1  8  05 00 00 00 00 00 00 00 
    486)       260.4  Rx         0343  8  00 90 68 7E 96 00 00 00 
    487)       260.7  Rx         0129  8  A6 2F 2E 20 00 20 FF 3F 
    488)       261.2  Rx         0132  8  7C 8E F8 FF 2A 40 FF 0F 
    489)       261.6  Rx         02C2  8  00 00 00 97 01 00 C0 65 
    490)       262.6  Rx         02E2  8  F7 13 50 3F 01 00 00 00 
    491)       262.7  Rx         01F9  1  00 
    492)       263.0  Rx         03C2  8  29 55 00 00 00 00 00 00 
    493)       263.1  Rx         02D1  2  FF 01 
    494)       264.4  Rx         0263  8  02 00 00 00 F7 10 00 00 
    495)       264.7  Rx         02B3  8  00 7E 77 8B 7B 84 00 00 
    496)       265.1  Rx         02E1  8  44 0D 00 20 11 03 EE FF 
    497)       266.4  Rx         03C3  7  55 55 55 00 00 A2 00 
    498)       267.0  Rx         013D  6  00 00 00 00 FF 00 
    499)       267.2  Rx         0201  8  C9 64 64 FF FF 17 9E 00 
    500)       267.4  Rx         0113  3  01 97 01 
    501)       267.6  Rx         07FF  8  03 07 08 48 61 42 00 12 
    502)       267.9  Rx         0318  8  15 05 09 06 03 2E 15 8A 
    503)       268.1  Rx         0458  7  00 00 10 00 00 00 00 
    504)       268.2  Rx         0213  2  40 55 
    505)       268.8  Rx         0439  8  02 04 10 00 00 00 00 00 
    506)       269.6  Rx         023E  8  F4 01 3A ED FA FC 2F 81 
    507)       270.7  Rx         0129  8  2A 20 2E 20 FF 1F FF 3F 
    508)       271.1  Rx         02C1  8  06 00 00 00 40 00 00 00 
    509)       271.4  Rx         0132  8  77 8E F8 FF 27 40 FF 0F 
    510)       271.5  Rx         01FA  3  22 C0 01 
    511)       271.8  Rx         0207  8  00 00 00 00 00 00 00 00 
    512)       272.4  Rx         0383  8  9F 00 1E 00 91 00 62 28 
    513)       272.7  Rx         01FB  8  F0 FF FF FF FF FF FF FF 
    514)       273.1  Rx         0421  7  00 0A 00 10 00 00 00 
    515)       274.7  Rx         0119  2  00 00 
    516)       276.8  Rx         013D  6  00 00 00 00 FF 00 
    517)       278.0  Rx         02D2  8  30 2F B7 4E 00 00 A1 01 
    518)       278.2  Rx         0212  8  98 04 1E 0D 02 FF 3F 02 
    519)       278.4  Rx         0252  8  00 00 BC 06 00 00 00 00 
    520)       278.7  Rx         0292  8  11 D6 87 A1 85 0A FB 01 
    521)       278.8  Rx         02F2  2  12 01 
    522)       279.0  Rx         0423  6  00 00 10 00 00 00 
    523)       279.4  Rx         0243  8  FC 7F FF 5F 99 34 01 4C 
    524)       280.5  Rx         0242  2  20 45 
    525)       280.7  Rx         0129  8  54 21 2E 20 00 20 FF 3F 
    526)       281.1  Rx         0201  8  E2 54 20 C0 04 F8 7C 09 
    527)       281.4  Rx         0132  8  78 8E F7 FF 26 40 FF 0F 
    528)       281.6  Rx         0320  8  01 00 00 00 00 00 00 00 
    529)       281.9  Rx         0381  8  14 00 00 00 00 00 00 00 
    530)       282.1  Rx         0772  8  01 2A 94 0C 94 0C 2A 0D 
    531)       282.3  Rx         02E1  8  FD 1B 80 49 97 7F 09 00 
    532)       282.6  Rx         0272  8  06 00 03 D1 07 C0 1E 20 
    533)       283.2  Rx         03A1  8  C5 42 31 C5 08 14 82 3F 
    534)       283.4  Rx         02C1  8  07 00 00 00 00 00 00 00 
    535)       283.6  Rx         0545  8  03 19 64 32 19 00 F0 05 
    536)       284.5  Rx         02C3  8  00 00 00 27 01 00 C0 65 
    537)       284.8  Rx         039A  8  FF FE FE FE FE 00 00 00 
    538)       286.7  Rx         041D  1  00 
    539)       287.1  Rx         021D  8  04 00 04 00 00 00 00 00 
    540)       287.3  Rx         013D  6  00 00 00 00 FF 00 
    541)       287.7  Rx         025D  8  C4 48 01 B9 40 61 01 C0 
    542)       287.9  Rx         043D  6  00 00 00 00 FF 00 
    543)       288.2  Rx         027D  8  00 00 00 00 00 00 00 00 
    544)       288.3  Rx         029D  4  00 00 00 20 
    545)       288.7  Rx         075D  8  16 00 00 27 00 00 00 00 
    546)       289.3  Rx         02BD  4  00 00 00 00 
    547)       289.6  Rx         0360  8  00 00 00 00 00 00 00 00 
    548)       289.7  Rx         077D  3  11 00 00 
    549)       289.9  Rx         07DD  2  FF 00 
    550)       290.7  Rx         0129  8  B0 22 2E 20 01 20 FF 3F 
    551)       290.9  Rx         0379  8  00 00 58 00 9B 29 1E 01 
    552)       291.1  Rx         0229  3  3B 0F 00 
    553)       291.3  Rx         0132  8  7A 8E F7 FF 29 40 FF 0F 
    554)       291.5  Rx         0249  4  E2 0A 00 00 
    555)       291.7  Rx         039D  5  25 69 F5 27 00 
    556)       291.9  Rx         054F  8  00 00 00 00 00 00 00 00 
    557)       292.6  Rx         0282  8  08 00 00 00 F0 F3 F3 24 
    558)       292.8  Rx         02C4  8  15 00 02 08 10 80 FF 00 
    559)       293.1  Rx         0204  8  01 00 00 FF 00 00 00 00 
    560)       293.3  Rx         0261  8  7F 19 C8 0C EB 7F EB FF 
    561)       293.6  Rx         0224  8  04 08 00 40 19 01 10 08 
    562)       293.8  Rx         0264  6  38 00 00 00 E0 01 
    563)       294.0  Rx         02B4  5  54 E9 26 BC 00 
    564)       294.5  Rx         0263  8  03 00 00 00 00 00 00 00 
    565)       294.7  Rx         0393  8  09 80 63 00 00 00 00 00 
    566)       295.1  Rx         02C1  8  60 49 3C 0A 91 1F 00 00 
    567)       295.4  Rx         0201  8  CB 00 00 19 18 18 9E 00 
    568)       296.0  Rx         0287  8  34 38 33 35 DA 02 00 00 
    569)       296.6  Rx         0139  1  00 
    570)       296.8  Rx         013D  6  00 00 00 00 FF 00 
    571)       298.6  Rx         0102  8  22 33 00 00 C2 0E A1 09 
    572)       299.1  Rx         02E1  8  10 21 04 BE 16 84 00 06 
    573)       300.3  Rx         0225  3  11 06 32 
    574)       300.7  Rx         0129  8  0A 23 2E 20 00 20 FF 3F 
    575)       301.3  Rx         0132  8  7C 8E F8 FF 29 40 FF 0F 
    576)       301.5  Rx         0372  8  05 00 12 00 50 53 12 00 
    577)       302.6  Rx         03A2  8  00 E0 F2 B7 04 00 C2 70 
    578)       302.8  Rx         03DA  8  00 00 00 00 00 00 00 00 
    579)       303.1  Rx         03E9  8  00 C0 01 00 00 00 B0 5D 
    580)       303.7  Rx         03C8  8  01 00 00 00 00 00 00 00 
    581)       305.1  Rx         0419  1  00 
    582)       306.0  Rx         03E8  8  01 00 00 00 00 00 00 00 
    583)       306.4  Rx         0283  6  00 00 00 00 40 00 
    584)       306.8  Rx         013D  6  00 00 00 00 FF 00 
    585)       307.1  Rx         02C1  8  01 0E 4B 1C 32 00 64 00 
    586)       307.6  Rx         0122  6  00 00 12 12 D2 00 
    587)       308.1  Rx         0221  8  21 01 55 00 00 00 E0 7A 
    588)       308.2  Rx         0409  1  20 
    589)       308.8  Rx         037A  8  00 00 00 00 00 00 00 00 
    590)       309.1  Rx         0201  8  CC 00 00 19 18 18 9E 00 
    591)       309.4  Rx         0243  8  01 FC 37 FF 36 FF 76 76 
    592)       309.7  Rx         022A  4  00 00 D9 16 
    593)       309.9  Rx         023E  8  F4 01 3A ED FA FC 3F 91 
    594)       310.7  Rx         0129  8  8C 24 2E 20 00 20 FF 3F 
    595)       311.2  Rx         0132  8  7E 8E F8 FF 27 40 FF 0F 
    596)       311.6  Rx         0788  8  01 00 00 00 FF A1 08 00 
    597)       312.4  Rx         03C0  8  07 00 00 00 00 00 00 00 
    598)       312.7  Rx         03C2  8  00 55 55 55 00 00 6A 06 
    599)       313.0  Rx         0400  7  00 A0 69 BE EF FB 00 
    600)       313.2  Rx         0281  6  00 00 FF 1F 00 00 
    601)       314.1  Rx         07A8  8  01 00 00 00 FF A1 08 00 
    602)       314.8  Rx         0359  8  08 00 00 00 02 00 00 04 
    603)       315.0  Rx         039A  8  FE FE FE FE FE FE FE 00 
    604)       316.1  Rx         02E1  8  41 0C 03 FF DB 07 00 00 
    605)       316.5  Rx         01F8  4  00 00 00 00 
    606)       316.9  Rx         013D  6  00 00 00 00 FF 00 
    607)       318.4  Rx         0103  8  22 33 00 00 80 08 21 32 
    608)       318.7  Rx         0473  8  30 00 00 00 30 E8 90 60 
    609)       318.8  Rx         03B3  5  1C 80 00 20 01 
    610)       319.1  Rx         02C1  8  12 A5 41 41 00 10 03 00 
    611)       319.6  Rx         0288  8  03 93 06 58 A6 65 E0 69 
    612)       320.7  Rx         0129  8  9B 25 2E 20 00 20 FF 3F 
    613)       320.9  Rx         038A  8  00 00 00 00 00 00 00 00 
    614)       321.3  Rx         0132  8  7C 8E F7 FF 27 40 FF 0F 
    615)       322.0  Rx         0228  8  03 0B 06 58 A6 65 E0 81 
    616)       322.6  Rx         01FB  8  01 FE FF B7 6D 0B 00 00 
    617)       323.2  Rx         0340  8  01 00 00 00 00 00 00 00 
    618)       323.4  Rx         0201  8  CD 00 00 19 18 18 9E 00 
    619)       324.1  Rx         0381  8  15 00 00 00 00 00 00 00 
    620)       324.4  Rx         0123  8  00 00 12 12 D2 00 00 00 
    621)       324.7  Rx         0263  8  00 B1 51 DC FA 7D 17 FA 
    622)       325.0  Rx         078A  8  01 00 07 00 00 00 B0 04 
    623)       325.6  Rx         03E2  8  00 00 00 00 00 00 00 04 
    624)       325.8  Rx         07AA  8  01 46 0E 43 0E 00 00 00 
    625)       326.8  Rx         013D  6  00 00 00 00 FF 00 
    626)       327.6  Rx         06C8  8  DC 0B 00 FC 01 00 00 00 
    627)       330.0  Rx         06E8  8  D8 0B 00 FB 01 00 00 00 
    628)       330.4  Rx         03A3  5  12 D0 00 00 08 
    629)       330.7  Rx         0129  8  41 26 2E 20 00 20 FF 3F 
    630)       330.9  Rx         039D  5  26 6A F5 27 00 
    631)       331.1  Rx         02C1  8  03 00 40 66 00 C0 29 00 
    632)       331.4  Rx         0132  8  73 8E F8 FF 27 40 FF 0F 
    633)       332.6  Rx         0272  8  09 80 63 00 00 00 00 00 
    634)       333.1  Rx         0241  7  37 64 5C 0F 1E 5B 00 
    635)       333.3  Rx         02E1  8  02 00 00 00 00 00 01 00 
    636)       333.6  Rx         0545  8  28 00 3F A0 98 8E 09 80 
    637)       334.6  Rx         04E2  8  00 8C 02 00 00 00 08 00 
    638)       335.7  Rx         02A8  8  02 10 00 00 00 00 00 BC 
    639)       336.4  Rx         020C  8  00 C0 37 1A 00 00 00 00 
    640)       336.7  Rx         0399  3  00 00 00 
    641)       336.9  Rx         013D  6  00 00 00 00 FF 00 
    642)       337.1  Rx         0201  8  CE 00 00 19 18 18 9E 00 
    643)       338.0  Rx         02E8  8  02 10 00 00 00 00 F0 EC 
    644)       338.8  Rx         02F9  8  84 FB 07 18 00 00 00 00 
    645)       339.4  Rx         0243  8  FE FF 23 0F 00 00 00 00 
    646)       340.6  Rx         0247  8  3F 0E FF 00 00 00 00 00 
    647)       340.8  Rx         0129  8  56 27 2E 20 00 20 FF 3F 
    648)       341.0  Rx         0227  8  00 00 00 00 4A 00 00 80 
    649)       341.2  Rx         0249  4  28 0B 00 00 
    650)       341.4  Rx         0132  8  75 8E F7 FF 26 40 FF 0F 
    651)       342.3  Rx         03E3  2  00 00 
    652)       342.6  Rx         0282  8  A5 21 0C 18 98 01 40 2F 
    653)       343.1  Rx         02F1  8  0C 05 40 98 00 85 50 4D 
    654)       343.4  Rx         02C1  8  04 CA 3F 03 E4 30 60 47 
    655)       343.6  Rx         0262  8  0B 00 D3 AC 00 B0 90 10 
    656)       343.8  Rx         0428  6  00 00 10 10 00 00 
    657)       344.4  Rx         0393  8  06 00 08 E9 07 C0 1E 20 
    658)       344.8  Rx         03F9  8  03 00 00 00 00 00 00 00 
    659)       345.0  Rx         039A  8  FF FE FE FE FE 00 00 00 
    660)       346.0  Rx         0448  6  00 00 10 10 00 00 
    661)       346.8  Rx         013D  6  00 00 00 00 FF 00 
    662)       348.4  Rx         04E3  8  00 B7 03 00 00 00 08 00 
    663)       349.6  Rx         023E  8  F4 01 3A ED FA FC 4F A1 
    664)       350.1  Rx         02E1  8  03 6D 99 02 9F 5F 00 00 
    665)       350.7  Rx         0129  8  81 28 2E 20 00 20 FF 3F 
    666)       350.9  Rx         0339  8  C0 E1 00 00 00 01 40 0F 
    667)       351.2  Rx         0201  8  C8 64 1E 49 98 25 03 00 
    668)       351.4  Rx         0132  8  77 8E F8 FF 2A 40 FF 0F 
    669)       352.5  Rx         0422  6  70 00 10 00 00 00 
    670)       352.8  Rx         03A2  8  51 05 00 00 00 00 00 00 
    671)       353.1  Rx         03F5  8  00 00 00 00 00 00 00 00 
    672)       354.4  Rx         02E3  7  80 00 00 69 C2 02 00 
    673)       354.6  Rx         0263  8  01 B1 4E DD F9 7E 14 FA 
    674)       354.9  Rx         02B3  8  01 85 84 85 76 84 83 7D 
    675)       355.1  Rx         02C1  8  05 00 00 00 00 00 00 00 
    676)       356.6  Rx         0719  1  10 
    677)       356.8  Rx         013D  6  00 00 00 00 FF 00 
    678)       358.1  Rx         0221  8  20 41 09 1A 00 50 F1 E8 
    679)       360.4  Rx         0343  8  00 90 5C 4E 97 00 00 00 
    680)       360.7  Rx         0129  8  D4 29 2E 20 00 20 FF 3F 
    681)       361.3  Rx         0132  8  77 8E F8 FF 28 40 FF 0F 
    682)       361.6  Rx         02C2  8  55 5B A9 B6 02 00 92 00 
    683)       362.6  Rx         03C2  8  29 55 00 00 00 00 00 00 
    684)       362.7  Rx         01F9  1  00 
    685)       363.0  Rx         02D1  2  FF 01 
    686)       365.1  Rx         0201  8  C9 64 64 FF FF 17 9E 00 
    687)       366.5  Rx         03C3  7  55 55 55 00 00 A2 00 
    688)       366.9  Rx         013D  6  00 00 00 00 FF 00 
    689)       367.1  Rx         02C1  8  06 00 00 00 40 00 00 00 
    690)       367.4  Rx         02E1  8  44 0D 00 20 11 03 ED FF 
    691)       367.5  Rx         0113  3  01 97 01 
    692)       367.8  Rx         0381  8  16 05 00 00 00 00 00 00 
    693)       368.0  Rx         07FF  8  04 F7 19 76 5F 08 00 00 
    694)       368.3  Rx         0318  8  15 05 09 06 03 2E 17 8C 
    695)       368.5  Rx         0458  7  00 00 10 00 00 00 00 
    696)       368.7  Rx         0405  8  12 46 38 30 39 35 34 39 
    697)       369.0  Rx         0439  8  02 04 10 00 00 00 00 00 
    698)       369.1  Rx         0333  5  84 30 B9 07 03 
    699)       369.4  Rx         0243  8  FC 7F FF 5F 99 34 01 4C 
    700)       370.7  Rx         0129  8  A6 2A 2E 20 01 20 FF 3F 
    701)       370.9  Rx         0207  8  00 00 00 00 00 00 00 00 
    702)       371.1  Rx         039D  5  27 6B F5 27 00 
    703)       371.3  Rx         0132  8  7B 8E F7 FF 26 40 FF 0F 
    704)       371.6  Rx         0372  8  06 00 F2 FF 35 4E F4 FF 
    705)       371.7  Rx         01FA  3  22 C0 01 
    706)       372.4  Rx         0383  8  9F 00 1E 00 91 00 62 28 
    707)       372.7  Rx         01FB  8  F0 FF FF FF FF FF FF FF 
    708)       373.1  Rx         0421  7  00 0A 00 10 00 00 00 
    709)       374.7  Rx         0119  2  00 00 
    710)       374.9  Rx         039A  8  FE FE FE FE FE FE FE 00 
    711)       376.8  Rx         013D  6  00 00 00 00 FF 00 
    712)       378.1  Rx         02D2  8  30 2F B7 4E 00 00 A1 01 
    713)       378.4  Rx         0212  8  98 04 1E 0D 02 FF 3F 02 
    714)       378.6  Rx         0252  8  00 00 BC 06 00 00 00 00 
    715)       378.8  Rx         0292  8  11 D6 87 A1 85 0A FB 01 
    716)       379.0  Rx         02F2  2  12 01 
    717)       379.2  Rx         0201  8  E2 54 20 C0 04 F8 7C 09 
    718)       379.5  Rx         02C1  8  07 00 00 00 00 00 00 00 
    719)       379.7  Rx         03B2  8  04 00 00 00 00 00 44 00 
    720)       379.9  Rx         0423  6  00 00 10 00 00 00 
    721)       380.5  Rx         0242  2  20 45 
    722)       380.7  Rx         0129  8  FA 2B 2E 20 00 20 FF 3F 
    723)       381.3  Rx         0132  8  7A 8E F8 FF 2A 40 FF 0F 
    724)       382.6  Rx         0272  8  06 00 03 D1 07 C0 1E 20 
    725)       383.1  Rx         03A1  8  C5 42 31 C5 08 14 92 4F 
    726)       383.4  Rx         0545  8  03 19 64 32 19 00 10 25 
    727)       384.1  Rx         02E1  8  FD 1B 7F 49 97 7A 09 00 
    728)       384.5  Rx         02C3  8  55 63 A8 B6 02 00 98 00 
    729)       384.7  Rx         0263  8  02 00 00 00 F7 10 00 00 
    730)       386.6  Rx         041D  1  00 
    731)       387.2  Rx         021D  8  04 00 04 00 00 00 00 00 
    732)       387.4  Rx         013D  6  00 00 00 00 FF 00 
    733)       387.7  Rx         025D  8  C4 48 01 B9 40 61 01 C0 
    734)       387.9  Rx         043D  6  00 00 00 00 FF 00 
    735)       388.2  Rx         027D  8  00 00 00 00 00 00 00 00 
    736)       388.6  Rx         029D  4  00 00 00 20 
    737)       388.8  Rx         02BD  4  00 00 00 00 
    738)       389.0  Rx         077D  3  11 00 00 
    739)       389.6  Rx         0360  8  01 00 00 00 00 00 00 00 
    740)       389.8  Rx         023E  8  F4 01 3A ED FA FC 5F B1 
    741)       390.0  Rx         07DD  2  FF 00 
    742)       390.7  Rx         0129  8  F3 2C 2E 20 FF 1F FF 3F 
    743)       390.9  Rx         0379  8  01 00 58 00 9B 29 1E 01 
    744)       391.1  Rx         0229  3  46 00 00 
    745)       391.3  Rx         0132  8  7C 8E F7 FF 26 40 FF 0F 
    746)       391.5  Rx         0249  4  3A 0C 00 00 
    747)       391.7  Rx         02C1  8  60 49 3C 0A 91 1F 00 00 
    748)       391.9  Rx         0330  8  10 00 38 2E 32 52 00 00 
    749)       392.2  Rx         054F  8  00 00 00 00 00 00 00 00 
    750)       392.6  Rx         0282  8  08 00 00 00 F0 F3 F3 24 
    751)       392.8  Rx         02C4  8  16 74 55 00 00 00 00 01 
    752)       393.1  Rx         0204  8  01 00 00 FF 00 00 00 00 
    753)       393.3  Rx         0201  8  CB 00 00 19 18 18 9E 00 
    754)       393.6  Rx         0224  8  04 08 00 40 19 01 10 08 
    755)       393.8  Rx         0261  8  7E 19 C8 0C EB 7F E2 FF 
    756)       394.0  Rx         0264  6  38 00 00 00 E0 01 
    757)       394.2  Rx         02B4  5  55 E9 26 BD 00 
    758)       394.4  Rx         03C4  8  0A 01 FF 01 FC 00 1B 00 
    759)       394.7  Rx         0393  8  09 80 63 00 00 00 00 00 
    760)       395.6  Rx         0287  8  34 38 33 35 DA 02 00 00 
    761)       396.6  Rx         0139  1  00 
    762)       396.8  Rx         013D  6  00 00 00 00 FF 00 
    763)       398.6  Rx         0102  8  22 33 00 00 C2 0E A1 09 
    764)       399.4  Rx         0243  8  01 FC 37 FF 36 FF 76 76 
    765)       400.0  Rx         0748  5  22 1A 07 00 00 
    766)       400.3  Rx         0225  3  11 06 32 
    767)       400.7  Rx         0129  8  88 2D 2E 20 00 20 FF 3F 
    768)       401.1  Rx         02E1  8  10 21 04 BE 16 84 00 06 
    769)       401.4  Rx         0132  8  79 8E F8 FF 26 40 FF 0F 
    770)       402.6  Rx         03A2  8  00 E0 F2 B5 04 00 C2 70 
    771)       402.9  Rx         03DA  8  00 00 00 00 00 00 00 00 
    772)       403.1  Rx         02C1  8  01 0E 4B 1C 32 00 64 00 
    773)       403.6  Rx         03C8  8  02 00 00 00 00 00 00 00 
    774)       404.8  Rx         039A  8  FF FE FE FE FE 00 00 00 
    775)       405.1  Rx         0419  1  00 
    776)       406.1  Rx         03E8  8  02 00 00 00 00 00 00 00 
    777)       406.4  Rx         0283  6  00 00 00 00 40 00 
    778)       406.8  Rx         013D  6  00 00 00 00 FF 00 
    779)       407.1  Rx         0201  8  CC 00 00 19 18 18 9E 00 
    780)       407.6  Rx         0122  6  00 00 12 12 D2 00 
    781)       408.1  Rx         0221  8  21 01 55 00 00 00 00 9A 
    782)       408.7  Rx         0409  1  20 
    783)       408.9  Rx         037A  8  01 00 00 00 00 00 00 00 
    784)       409.6  Rx         022A  4  00 00 D9 16 
    785)       410.1  Rx         0381  8  00 4C 64 5C 37 32 21 49 
    786)       410.7  Rx         0129  8  57 2E 2E 20 00 20 FF 3F 
    787)       410.8  Rx         039D  5  28 6C F5 27 00 
    788)       411.3  Rx         0132  8  78 8E F7 FF 28 40 FF 0F 
    789)       411.6  Rx         0788  8  0E 1F 13 05 00 00 00 00 
    790)       412.5  Rx         03C0  8  00 00 00 00 00 00 00 00 
    791)       412.7  Rx         03C2  8  00 55 55 55 00 00 6A 06 
    792)       412.9  Rx         0400  7  02 A0 69 BE EF FB 00 
    793)       413.1  Rx         0281  6  00 00 FF 1F 00 00 
    794)       413.3  Rx         038B  6  FF FF 37 19 DC 00 
    795)       414.0  Rx         07A8  8  E6 1E 13 F5 00 00 00 00 
    796)       414.5  Rx         0263  8  03 00 00 00 00 00 00 00 
    797)       414.8  Rx         0359  8  09 00 00 00 00 00 00 00 
    798)       414.9  Rx         0410  2  4B 00 
    799)       415.1  Rx         02C1  8  12 A5 41 41 00 10 03 00 
    800)       416.5  Rx         01F8  4  00 00 00 00 
    801)       416.9  Rx         013D  6  00 00 00 00 FF 00 
    802)       418.1  Rx         02E1  8  41 0C 03 FF DB 07 00 00 
    803)       418.4  Rx         0103  8  22 33 00 00 80 08 21 32 
    804)       418.7  Rx         0334  8  1F 3F 5A C8 00 02 30 E9 
    805)       419.6  Rx         0288  8  03 93 06 58 A6 65 F0 79 
    806)       420.7  Rx         0129  8  A6 2F 2E 20 00 20 FF 3F 
    807)       420.9  Rx         038A  8  01 00 00 00 00 00 00 00 
    808)       421.2  Rx         0201  8  CD 00 00 19 18 18 9E 00 
    809)       421.4  Rx         0132  8  7B 8E F8 FF 28 40 FF 0F 
    810)       422.0  Rx         0228  8  03 0B 06 58 A6 65 F0 91 
    811)       422.6  Rx         01FB  8  01 FE FF B7 6D 0B 00 00 
    812)       423.1  Rx         0340  8  02 00 00 00 00 00 00 00 
    813)       424.4  Rx         0123  8  00 00 12 12 D2 00 00 00 
    814)       425.0  Rx         078A  8  01 00 08 00 00 00 51 00 
    815)       425.6  Rx         03E2  8  00 00 00 00 00 00 00 04 
    816)       425.8  Rx         07AA  8  12 08 72 F7 B4 05 22 00 
    817)       426.8  Rx         013D  6  00 00 00 00 FF 00 
    818)       427.1  Rx         02C1  8  03 00 40 66 00 C0 29 00 
    819)       427.6  Rx         06C8  8  01 00 00 00 00 00 00 00 
    820)       429.4  Rx         0243  8  FE FF 23 0F 00 00 00 00 
    821)       429.6  Rx         023E  8  F4 01 3A ED FA FC 6F C1 
    822)       430.1  Rx         06E8  8  01 00 00 00 00 00 00 00 
    823)       430.4  Rx         03A3  5  14 D0 00 00 08 
    824)       430.7  Rx         0129  8  43 20 2E 20 00 20 FF 3F 
    825)       431.3  Rx         0132  8  7A 8E F8 FF 28 40 FF 0F 
    826)       432.6  Rx         0272  8  09 80 63 00 00 00 00 00 
    827)       433.1  Rx         0241  7  37 64 1C 0F 1E 5B 00 
    828)       433.3  Rx         0545  8  26 00 3A 90 98 89 29 84 
    829)       434.6  Rx         04E2  8  01 21 06 00 00 00 08 00 
    830)       434.9  Rx         039A  8  FE FE FE FE FE FE FE 00 
    831)       435.1  Rx         0201  8  CE 00 00 19 18 18 9E 00 
    832)       435.4  Rx         02E1  8  02 00 00 00 00 00 01 00 
    833)       435.7  Rx         02A8  8  02 10 00 00 00 00 10 CC 
    834)       436.4  Rx         020C  8  00 C0 37 1A 00 00 00 00 
    835)       436.9  Rx         013D  6  00 00 00 00 FF 00 
    836)       438.1  Rx         02E8  8  02 10 00 00 00 00 00 FC 
    837)       438.8  Rx         02F9  8  84 FB 07 20 00 00 00 00 
    838)       439.1  Rx         02C1  8  04 CA 3F 03 E4 30 60 47 
    839)       440.7  Rx         0247  8  3F 0E FF 00 00 00 00 00 
    840)       440.9  Rx         0129  8  54 21 2E 20 00 20 FF 3F 
    841)       441.2  Rx         0227  8  00 00 00 00 4A 00 00 80 
    842)       441.4  Rx         0132  8  7B 8E F8 FF 27 40 FF 0F 
    843)       441.6  Rx         0249  4  13 0D 00 00 
    844)       441.8  Rx         0372  8  07 00 ED FF B4 52 EF FF 
    845)       442.3  Rx         03E3  2  00 00 
    846)       442.6  Rx         0282  8  A5 21 0C 18 CC 00 40 2F 
    847)       443.2  Rx         02F1  8  0D 00 00 00 00 00 28 28 
    848)       443.6  Rx         0262  8  0B 00 D3 AC 00 B0 90 10 
    849)       443.8  Rx         0428  6  00 00 10 10 00 00 
    850)       444.5  Rx         0263  8  00 B1 51 DC FA 7D 17 FA 
    851)       444.7  Rx         02B3  8  22 28 00 00 00 00 00 00 
    852)       444.9  Rx         0393  8  06 00 07 F1 07 C0 1E 20 
    853)       445.2  Rx         03F9  8  04 00 00 00 00 00 00 00 
    854)       446.0  Rx         0448  6  00 00 10 10 00 00 
    855)       446.9  Rx         013D  6  00 00 00 00 FF 00 
    856)       448.4  Rx         04E3  8  01 0D 05 00 00 00 08 00 
    857)       449.1  Rx         0201  8  C8 04 1E 49 98 25 03 00 
    858)       450.7  Rx         0129  8  1D 22 2E 20 00 20 FF 3F 
    859)       451.0  Rx         0339  8  C0 E1 00 00 00 01 40 0F 
    860)       451.2  Rx         02C1  8  05 00 00 00 00 00 00 00 
    861)       451.4  Rx         0132  8  75 8E F8 FF 28 40 FF 0F 
    862)       451.6  Rx         039D  5  29 6D F5 27 00 
    863)       452.2  Rx         02E1  8  03 6D 99 02 9F 5F 00 00 
    864)       452.6  Rx         0422  6  70 00 10 00 00 00 
    865)       452.8  Rx         03A2  8  51 05 00 00 00 00 00 00 
    866)       453.2  Rx         03F5  8  00 00 00 00 00 00 00 00 
    867)       453.4  Rx         0381  8  01 27 00 00 98 94 94 04 
    868)       454.5  Rx         02E3  7  01 00 00 65 C2 02 00 
    869)       456.6  Rx         0719  1  10 
    870)       456.9  Rx         013D  6  00 00 00 00 FF 00 
    871)       458.1  Rx         0221  8  20 41 09 1A 00 50 11 08 
    872)       459.5  Rx         0243  8  FC 7F FF 5F 99 34 01 4C 
    873)       460.5  Rx         0343  8  00 90 5C CE 96 00 00 00 
    874)       460.7  Rx         0129  8  0A 23 2E 20 00 20 FF 3F 
    875)       461.3  Rx         0132  8  6F 8E F8 FF 26 40 FF 0F 
    876)       461.6  Rx         02C2  8  00 00 00 97 01 00 C0 65 
    877)       462.5  Rx         0744  1  AA 
    878)       462.7  Rx         02E2  8  00 00 00 4B C2 02 00 00 
    879)       462.9  Rx         01F9  1  00 
    880)       463.1  Rx         03C2  8  29 55 00 00 00 00 00 00 
    881)       463.3  Rx         0201  8  C9 64 64 FF FF 17 9E 00 
    882)       463.6  Rx         02C1  8  06 00 00 00 40 00 00 00 
    883)       463.7  Rx         02D1  2  FF 01 
    884)       464.9  Rx         039A  8  FF FE FE FE FE 00 00 00 
    885)       466.5  Rx         03C3  7  55 55 55 00 00 A2 00 
    886)       466.9  Rx         013D  6  00 00 00 00 FF 00 
    887)       467.4  Rx         0113  3  01 97 01 
    888)       467.7  Rx         07FF  8  01 41 52 4B 01 04 15 01 
    889)       467.9  Rx         0318  8  15 05 09 06 03 2E 19 8E 
    890)       468.1  Rx         0458  7  00 00 10 00 00 00 00 
    891)       468.4  Rx         02F3  5  08 48 13 90 00 
    892)       468.8  Rx         0439  8  02 04 10 00 00 00 00 00 
    893)       469.2  Rx         02E1  8  44 0D 00 20 11 03 ED FF 
    894)       469.9  Rx         023E  8  F4 01 3A ED FA FC 7F D1 
    895)       470.2  Rx         0207  8  00 00 00 00 00 00 00 00 
    896)       470.7  Rx         0129  8  8C 24 2E 20 00 20 FF 3F 
    897)       471.3  Rx         0132  8  71 8E F8 FF 28 40 FF 0F 
    898)       471.5  Rx         01FA  3  22 C0 01 
    899)       472.5  Rx         0383  8  9F 00 1E 00 91 00 62 28 
    900)       472.7  Rx         01FB  8  F0 FF FF FF FF FF FF FF 
    901)       473.2  Rx         0421  7  00 0A 00 10 00 00 00 
    902)       474.5  Rx         0263  8  01 B1 4E DD F9 7E 14 FA 
    903)       474.7  Rx         0119  2  00 00 
    904)       475.2  Rx         02C1  8  07 00 00 00 00 00 00 00 
    905)       476.9  Rx         013D  6  00 00 00 00 FF 00 
    906)       477.2  Rx         0201  8  E2 54 20 C0 04 F8 7C 09 
    907)       478.0  Rx         02D2  8  30 2F B7 4E 00 00 A1 01 
    908)       478.2  Rx         0212  8  98 04 1E 0D 02 FF 3F 02 
    909)       478.5  Rx         0252  8  00 00 BC 06 00 00 00 00 
    910)       478.7  Rx         0292  8  11 D6 87 A1 85 0A FB 01 
    911)       478.8  Rx         02F2  2  12 01 
    912)       479.1  Rx         0319  8  0A 01 07 00 03 00 0C 00 
    913)       479.3  Rx         0423  6  00 00 10 00 00 00 
    914)       480.5  Rx         0242  2  20 45 
    915)       480.7  Rx         0129  8  9B 25 2E 20 00 20 FF 3F 
    916)       481.3  Rx         0132  8  73 8E F8 FF 28 40 FF 0F 
    917)       482.2  Rx         0321  8  2F A2 A8 82 02 7F 20 C0 
    918)       482.6  Rx         0272  8  06 00 03 D1 07 C0 1E 20 
    919)       483.2  Rx         03A1  8  C5 42 31 C5 08 14 A2 5F 
    920)       483.4  Rx         0545  8  03 19 64 32 19 00 30 45 
    921)       484.5  Rx         02C3  8  00 00 00 27 01 00 C0 65 
    922)       484.8  Rx         043B  8  03 7F 00 FF 00 00 00 00 
    923)       485.1  Rx         03DB  8  03 01 00 00 00 00 00 00 
    924)       486.2  Rx         02E1  8  FD 1B 7E 49 97 7E 09 00 
    925)       487.0  Rx         021D  8  04 00 04 00 00 00 00 00 
    926)       487.2  Rx         02C1  8  60 49 3C 0A 91 1F 00 00 
    927)       487.4  Rx         013D  6  00 00 00 00 FF 00 
    928)       487.6  Rx         041D  1  00 
    929)       487.8  Rx         025D  8  C4 48 01 B9 40 61 01 C0 
    930)       488.0  Rx         027D  8  00 00 00 00 00 00 00 00 
    931)       488.3  Rx         043D  6  00 00 00 00 FF 00 
    932)       488.4  Rx         029D  4  00 00 00 20 
    933)       488.8  Rx         075D  8  07 00 00 00 00 00 00 00 
    934)       489.4  Rx         02BD  4  00 00 00 00 
    935)       489.6  Rx         0243  8  01 FC 37 FF 36 FF 76 76 
    936)       489.8  Rx         0360  8  02 00 00 00 00 00 00 00 
    937)       490.0  Rx         077D  3  11 00 00 
    938)       490.1  Rx         07DD  2  FF 00 
    939)       490.7  Rx         0129  8  EC 26 2E 20 01 20 FF 3F 
    940)       490.9  Rx         0379  8  02 00 58 00 9B 29 1E 01 
    941)       491.2  Rx         0201  8  CB 00 00 19 18 18 9E 00 
    942)       491.4  Rx         0132  8  70 8E F8 FF 27 40 FF 0F 
    943)       491.5  Rx         0229  3  44 01 00 
    944)       491.7  Rx         039D  5  2A 6E F5 27 00 
    945)       491.9  Rx         0249  4  AF 0E 00 00 
    946)       492.1  Rx         054F  8  00 00 00 00 00 00 00 00 
    947)       492.6  Rx         0282  8  08 00 00 00 F0 F3 F3 24 
    948)       492.9  Rx         02C4  8  D7 82 00 00 04 30 20 00 
    949)       493.1  Rx         0204  8  01 00 00 FF 00 00 00 00 
    950)       493.4  Rx         0261  8  80 19 C8 0C EB 7F EA FF 
    951)       493.6  Rx         0224  8  04 08 00 40 19 01 10 08 
    952)       493.8  Rx         0264  6  38 00 00 00 E0 01 
    953)       494.0  Rx         02B4  5  55 E9 26 BC 00 
    954)       494.4  Rx         0743  1  22 
    955)       494.6  Rx         0393  8  09 80 63 00 00 00 00 00 
    956)       494.8  Rx         039A  8  FE FE FE FE FE FE FE 00 
    957)       496.1  Rx         0381  8  22 A0 EC A7 01 20 08 00 
    958)       496.7  Rx         0139  1  00 
    959)       496.9  Rx         013D  6  00 00 00 00 FF 00 
    960)       497.1  Rx         0287  8  34 38 33 35 DA 02 00 00 
    961)       498.6  Rx         0102  8  22 33 00 00 C2 0E A1 09 
    962)       499.2  Rx         02C1  8  01 0E 4B 1C 32 00 64 00 
    963)       500.4  Rx         0225  3  11 06 32 
    964)       500.7  Rx         0129  8  56 27 2E 20 00 20 FF 3F 
    965)       501.3  Rx         0132  8  71 8E F8 FF 28 40 FF 0F 
    966)       502.6  Rx         03A2  8  00 00 73 B8 04 00 C2 70 
    967)       502.9  Rx         03DA  8  00 00 00 00 00 00 00 00 
    968)       503.1  Rx         02E1  8  10 21 04 BE 16 84 00 06 
    969)       503.7  Rx         03C8  8  03 00 00 00 00 00 00 00 
    970)       504.5  Rx         0263  8  02 00 00 00 F7 10 00 00 
    971)       505.2  Rx         0201  8  CC 00 00 19 18 18 9E 00 
    972)       505.2  Rx         0419  1  00 
    973)       506.1  Rx         03E8  8  03 00 00 00 00 00 00 00 
    974)       506.4  Rx         0283  6  00 00 00 00 40 00 
    975)       506.9  Rx         013D  6  00 00 00 00 FF 00 
    976)       507.6  Rx         0122  6  00 00 12 12 D2 00 
    977)       507.9  Rx         0409  1  20 
    978)       508.2  Rx         0221  8  21 01 55 00 00 00 20 BA 
    979)       508.8  Rx         037A  8  02 00 00 00 00 00 00 00 
    980)       509.7  Rx         023E  8  F4 01 3A ED FA FC 8F E1 
    981)       509.9  Rx         022A  4  00 00 D9 16 
    982)       510.7  Rx         0129  8  2C 28 2E 20 01 20 FF 3F 
    983)       511.2  Rx         02C1  8  12 A5 41 41 00 10 03 00 
    984)       511.4  Rx         0132  8  6D 8E F8 FF 27 40 FF 0F 
    985)       511.6  Rx         0372  8  08 00 00 00 00 00 00 00 
    986)       511.9  Rx         0788  8  B8 D4 B1 43 04 00 00 00 
    987)       512.5  Rx         03C0  8  01 00 00 00 00 00 00 00 
    988)       512.7  Rx         03C2  8  00 55 55 55 00 00 6A 06 
    989)       513.0  Rx         0400  7  00 A0 69 BE EF FB 00 
    990)       513.2  Rx         0281  6  00 00 FF 1F 00 00 
    991)       514.1  Rx         07A8  8  BC D4 C1 43 04 00 00 00 
    992)       514.8  Rx         0359  8  0A 00 00 00 AE 75 18 DD 
    993)       516.5  Rx         01F8  4  00 00 00 00 
    994)       516.9  Rx         013D  6  00 00 00 00 FF 00 
    995)       518.5  Rx         0103  8  22 33 00 00 80 08 21 32 
    996)       518.7  Rx         0273  8  80 E1 10 40 C8 01 30 12 
    997)       519.1  Rx         0201  8  CD 00 00 19 18 18 9E 00 
    998)       519.4  Rx         0243  8  FE FF 23 0F 00 00 00 00 
    999)       519.7  Rx         0288  8  03 93 06 58 A6 65 00 89 
   1000)       520.2  Rx         02E1  8  41 0C 03 FF DB 07 00 00 
   1001)       520.7  Rx         0129  8  D4 29 2E 20 00 20 FF 3F 
   1002)       520.9  Rx         038A  8  03 00 00 00 00 00 00 00 
   1003)       521.3  Rx         0132  8  71 8E F8 FF 27 40 FF 0F 
   1004)       522.0  Rx         0228  8  03 0B 06 58 A6 65 00 A1 
   1005)       522.6  Rx         01FB  8  01 FE FF B7 6D 0B 00 00 
   1006)       523.2  Rx         0340  8  03 00 00 00 00 00 00 00 
   1007)       523.4  Rx         02C1  8  03 00 40 66 00 C0 29 00 
   1008)       524.5  Rx         0123  8  00 00 12 12 D2 00 00 00 
   1009)       524.9  Rx         039A  8  FF FE FE FE FE 00 00 00 
   1010)       525.3  Rx         076A  8  00 18 0C 06 03 00 00 00 
   1011)       525.4  Rx         024A  1  03 
   1012)       525.7  Rx         03E2  8  00 00 00 00 00 00 00 04 
   1013)       525.9  Rx         078A  8  01 00 00 00 00 00 20 13 
   1014)       526.9  Rx         013D  6  00 00 00 00 FF 00 
   1015)       527.6  Rx         06C8  8  DC 0B 00 FC 01 00 00 00 
   1016)       530.1  Rx         06E8  8  D8 0B 00 FB 01 00 00 00 
   1017)       530.4  Rx         03A3  5  14 D0 00 00 08 
   1018)       530.7  Rx         0129  8  62 2A 2E 20 FF 1F FF 3F 
   1019)       530.9  Rx         039D  5  2B 6F F5 27 00 
   1020)       531.3  Rx         0132  8  6D 8E F8 FF 29 40 FF 0F 
   1021)       532.6  Rx         0272  8  09 80 63 00 00 00 00 00 
   1022)       533.1  Rx         0241  7  35 64 5C 0F 1E 5B 00 
   1023)       533.4  Rx         0201  8  CE 00 00 19 18 18 9E 00 
   1024)       533.6  Rx         0545  8  1E 00 3B B0 98 8F 49 C3 
   1025)       534.5  Rx         0263  8  03 00 00 00 00 00 00 00 
   1026)       534.7  Rx         02B3  8  03 28 28 48 02 00 30 00 
   1027)       535.0  Rx         04E2  8  02 37 00 00 00 00 08 00 
   1028)       535.2  Rx         02C1  8  04 CA 3F 03 E4 30 60 47 
   1029)       535.7  Rx         02A8  8  02 10 00 00 00 00 20 DC 
   1030)       536.5  Rx         020C  8  00 C0 37 1A 00 00 00 00 
   1031)       536.9  Rx         013D  6  00 00 00 00 FF 00 
   1032)       537.2  Rx         02E1  8  02 00 00 00 00 00 01 00 
   1033)       538.1  Rx         02E8  8  02 10 00 00 00 00 10 0C 
   1034)       538.9  Rx         02F9  8  84 FB 07 C0 F0 F6 10 02 
   1035)       539.2  Rx         0381  8  03 EE DF DE E8 05 00 00 
   1036)       540.7  Rx         0129  8  FA 2B 2E 20 00 20 FF 3F 
   1037)       540.9  Rx         0227  8  00 00 00 00 4A 00 00 80 
   1038)       541.2  Rx         0247  8  3F 0E FF 00 00 00 00 00 
   1039)       541.4  Rx         0132  8  74 8E F8 FF 27 40 FF 0F 
   1040)       541.6  Rx         0249  4  CE 0F 00 00 
   1041)       542.4  Rx         03E3  2  00 00 
   1042)       542.7  Rx         0282  8  A5 21 0C 18 80 08 40 2F 
   1043)       543.2  Rx         02F1  8  2E 09 40 21 04 00 28 04 
   1044)       543.6  Rx         0262  8  0B 00 D3 AC 00 B0 90 10 
   1045)       543.8  Rx         0428  6  00 00 10 10 00 00 
   1046)       544.4  Rx         0393  8  06 00 07 E9 07 C0 1E 20 
   1047)       544.8  Rx         03F9  8  05 00 00 00 00 00 00 00 
   1048)       546.0  Rx         0448  6  00 00 10 10 00 00 
   1049)       546.8  Rx         013D  6  00 00 00 00 FF 00 
   1050)       547.2  Rx         02C1  8  05 00 00 00 00 00 00 00 
   1051)       547.4  Rx         0201  8  B0 64 1E 4B 98 25 03 00 
   1052)       548.5  Rx         04E3  8  02 DE 00 00 00 00 08 00 
   1053)       549.4  Rx         0243  8  FC 7F FF 5F 99 34 01 4C 
   1054)       549.7  Rx         023E  8  F4 01 3A ED FA FC 9F F1 
   1055)       550.7  Rx         0129  8  9A 2C 2E 20 00 20 FF 3F 
   1056)       550.9  Rx         0339  8  C0 E1 00 00 00 01 40 0F 
   1057)       551.3  Rx         0132  8  77 8E F8 FF 28 40 FF 0F 
   1058)       552.6  Rx         0422  6  70 00 10 00 00 00 
   1059)       552.9  Rx         03A2  8  53 05 00 00 00 00 00 00 
   1060)       553.2  Rx         03F5  8  00 00 00 00 00 00 00 00 
   1061)       554.1  Rx         02E1  8  03 6D 99 02 9F 5F 00 00 
   1062)       554.5  Rx         02E3  7  02 00 00 36 C2 02 00 
   1063)       554.9  Rx         039A  8  FE FE FE FE FE FE FE 00 
   1064)       556.6  Rx         0719  1  10 
   1065)       556.9  Rx         013D  6  00 00 00 00 FF 00 
   1066)       558.1  Rx         0221  8  20 41 09 1A 00 50 31 28 
   1067)       559.2  Rx         02C1  8  06 00 00 00 40 00 00 00 
   1068)       560.4  Rx         0343  8  00 90 64 2E 97 00 00 00 
   1069)       560.7  Rx         0129  8  88 2D 2E 20 00 20 FF 3F 
   1070)       561.2  Rx         0201  8  C9 64 64 FF FF 17 9E 00 
   1071)       561.4  Rx         0132  8  76 8E F8 FF 28 40 FF 0F 
   1072)       561.6  Rx         02C2  8  55 5B A9 B6 02 00 92 00 
   1073)       562.7  Rx         03C2  8  29 55 00 00 00 00 00 00 
   1074)       562.7  Rx         01F9  1  00 
   1075)       563.0  Rx         02D1  2  FF 01 
   1076)       564.5  Rx         0263  8  00 B1 51 DC FA 7D 17 FA 
   1077)       566.5  Rx         03C3  7  55 55 55 00 00 A2 00 
   1078)       566.9  Rx         013D  6  00 00 00 00 FF 00 
   1079)       567.4  Rx         0113  3  01 97 01 
   1080)       567.7  Rx         07FF  8  02 46 96 24 44 51 DE 24 
   1081)       567.9  Rx         0318  8  15 05 09 06 03 2E 1B 90 
   1082)       568.1  Rx         0458  7  00 00 10 00 00 00 00 
   1083)       568.4  Rx         0284  5  10 00 00 00 00 
   1084)       568.6  Rx         0285  8  41 02 93 01 00 00 00 00 
   1085)       568.9  Rx         0439  8  02 04 10 00 00 00 00 00 
   1086)       570.1  Rx         0207  8  00 00 00 00 00 00 00 00 
   1087)       570.7  Rx         0129  8  57 2E 2E 20 00 20 FF 3F 
   1088)       570.9  Rx         039D  5  1C 60 F5 27 00 
   1089)       571.2  Rx         02C1  8  07 00 00 00 00 00 00 00 
   1090)       571.4  Rx         0132  8  6F 8E F8 FF 28 40 FF 0F 
   1091)       571.5  Rx         01FA  3  22 C0 01 
   1092)       571.8  Rx         02E1  8  44 0D 00 20 11 03 ED FF 
   1093)       572.5  Rx         0383  8  9F 00 1E 00 91 00 62 28 
   1094)       572.7  Rx         01FB  8  F0 FF FF FF FF FF FF FF 
   1095)       573.2  Rx         0421  7  00 0A 00 10 00 00 00 
   1096)       574.7  Rx         0119  2  00 00 
   1097)       575.2  Rx         0201  8  E2 54 20 C0 04 F8 7C 09 
   1098)       576.9  Rx         013D  6  00 00 00 00 FF 00 
   1099)       578.4  Rx         0423  6  00 00 10 00 00 00 
   1100)       579.0  Rx         02D2  8  30 2F B7 4E 00 00 A1 01 
   1101)       579.3  Rx         0212  8  98 04 1E 0D 02 FF 3F 02 
   1102)       579.5  Rx         0243  8  01 FC 37 FF 36 FF 76 76 
   1103)       579.8  Rx         0252  8  00 00 BC 06 00 00 00 00 
   1104)       580.0  Rx         0292  8  11 D6 87 A1 85 0A FB 01 
   1105)       580.1  Rx         02F2  2  12 01 
   1106)       580.4  Rx         0392  8  01 03 A4 1A 01 00 00 00 
   1107)       580.5  Rx         0242  2  20 45 
   1108)       580.8  Rx         0129  8  A6 2F 2E 20 00 20 FF 3F 
   1109)       581.3  Rx         0132  8  77 8E F7 FF 26 40 FF 0F 
   1110)       581.5  Rx         0372  8  09 00 00 00 00 00 00 00 
   1111)       582.2  Rx         0381  8  04 EF E0 DE E8 05 00 00 
   1112)       582.6  Rx         0272  8  06 00 03 D9 07 C0 1E 20 
   1113)       583.2  Rx         03A1  8  C5 42 31 C5 08 14 B2 6F 
   1114)       583.4  Rx         02C1  8  60 49 3C 0A 91 1F 00 00 
   1115)       583.7  Rx         0545  8  03 19 64 32 19 00 50 65 
   1116)       584.5  Rx         02C3  8  55 63 A8 B6 02 00 98 00 
   1117)       584.9  Rx         039A  8  FF FE FE FE FE 00 00 00 
   1118)       587.0  Rx         021D  8  04 00 04 00 00 00 00 00 
   1119)       587.1  Rx         041D  1  00 
   1120)       587.3  Rx         025D  8  C4 48 01 B9 40 61 01 C0 
   1121)       587.7  Rx         013D  6  00 00 00 00 FF 00 
   1122)       588.0  Rx         027D  8  00 00 00 00 00 00 00 00 
   1123)       588.1  Rx         029D  4  00 00 00 20 
   1124)       588.3  Rx         02E1  8  FD 1B 81 49 97 80 09 00 
   1125)       588.6  Rx         043D  6  00 00 00 00 FF 00 
   1126)       588.7  Rx         02BD  4  00 00 00 00 
   1127)       589.1  Rx         0201  8  CB 00 00 19 18 18 9E 00 
   1128)       589.3  Rx         077D  3  11 00 00 
   1129)       589.6  Rx         0360  8  03 00 00 00 00 00 00 00 
   1130)       589.8  Rx         07DD  2  FF 00 
   1131)       590.0  Rx         023E  8  F4 01 3A ED FA FC AF 01 
   1132)       590.7  Rx         0129  8  43 20 2E 20 00 20 FF 3F 
   1133)       591.0  Rx         0379  8  03 00 56 00 9B A9 15 01 
   1134)       591.1  Rx         0229  3  52 02 00 
   1135)       591.3  Rx         0132  8  72 8E F8 FF 28 40 FF 0F 
   1136)       591.5  Rx         0249  4  9B 00 00 00 
   1137)       591.8  Rx         054F  8  00 00 00 00 00 00 00 00 
   1138)       592.6  Rx         0282  8  08 00 00 00 F0 F3 F3 24 
   1139)       592.9  Rx         02C4  8  20 80 01 D2 00 00 00 00 
   1140)       593.1  Rx         0204  8  01 00 00 FF 00 00 00 00 
   1141)       593.3  Rx         0261  8  83 19 C8 0C EB 7F E5 FF 
   1142)       593.6  Rx         0224  8  04 08 00 40 19 01 10 08 
   1143)       593.8  Rx         0264  6  38 00 00 00 E0 01 
   1144)       594.0  Rx         02B4  5  54 E9 26 BE 00 
   1145)       594.5  Rx         0263  8  01 B1 4E DD F9 7E 14 FA 
   1146)       594.7  Rx         0393  8  09 80 63 00 00 00 00 00 
   1147)       595.0  Rx         0287  8  34 38 33 35 DA 02 00 00 
   1148)       595.2  Rx         02C1  8  01 0E 4B 1C 32 00 64 00 
   1149)       596.7  Rx         0139  1  00 
   1150)       596.9  Rx         013D  6  00 00 00 00 FF 00 
   1151)       598.6  Rx         0102  8  22 33 00 00 C2 0E A1 09 
   1152)       600.4  Rx         0225  3  11 06 32 
   1153)       600.7  Rx         0129  8  54 21 2E 20 00 20 FF 3F 
   1154)       601.3  Rx         0132  8  74 8E F7 FF 24 40 FF 0F 
   1155)       602.6  Rx         03A2  8  00 E0 F2 B5 04 00 C2 70 
   1156)       602.9  Rx         03DA  8  00 00 00 00 00 00 00 00 
   1157)       603.2  Rx         0201  8  CC 00 00 19 18 18 9E 00 
   1158)       603.7  Rx         03C8  8  04 00 00 00 00 00 00 00 
   1159)       605.2  Rx         02E1  8  10 21 04 BE 16 84 00 06 
   1160)       605.3  Rx         0419  1  00 
   1161)       606.1  Rx         03E8  8  04 00 00 00 00 00 00 00 
   1162)       606.4  Rx         0283  6  00 00 00 00 40 00 
   1163)       606.9  Rx         013D  6  00 00 00 00 FF 00 
   1164)       607.2  Rx         02C1  8  12 A5 41 41 00 10 03 00 
   1165)       607.6  Rx         0122  6  00 00 12 12 D2 00 
   1166)       607.9  Rx         0409  1  20 
   1167)       608.2  Rx         0221  8  21 01 55 00 00 00 40 DA 
   1168)       608.8  Rx         037A  8  00 00 00 00 00 00 00 00 
   1169)       609.5  Rx         0243  8  FE FF 23 0F 00 00 00 00 
   1170)       609.7  Rx         022A  4  00 00 D9 16 
   1171)       610.7  Rx         0129  8  74 22 2E 20 FF 1F FF 3F 
   1172)       610.9  Rx         039D  5  1D 61 F5 27 00 
   1173)       611.3  Rx         0132  8  72 8E F8 FF 28 40 FF 0F 
   1174)       611.5  Rx         0320  8  02 00 00 00 00 00 00 00 
   1175)       611.8  Rx         0772  8  02 0A 2A 0D 2A 0D 00 00 
   1176)       612.0  Rx         0788  8  01 00 00 00 FF A1 08 00 
   1177)       612.5  Rx         03C0  8  02 00 00 00 00 00 00 00 
   1178)       612.7  Rx         03C2  8  00 55 55 55 00 00 6A 06 
   1179)       613.0  Rx         0400  7  02 A0 71 BE EF FB 00 
   1180)       613.2  Rx         0281  6  00 00 FF 1F 00 00 
   1181)       614.1  Rx         07A8  8  01 00 00 00 FF A1 08 00 
   1182)       614.8  Rx         0359  8  0B 00 00 00 7F 00 00 00 
   1183)       615.1  Rx         039A  8  FE FE FE FE FE FE FE 00 
   1184)       616.6  Rx         01F8  4  00 00 00 00 
   1185)       616.9  Rx         013D  6  00 00 00 00 FF 00 
   1186)       617.1  Rx         0201  8  CD 00 00 19 18 18 9E 00 
   1187)       618.5  Rx         0103  8  22 33 00 00 80 08 21 32 
   1188)       618.7  Rx         0405  8  10 00 00 00 00 35 59 4A 
   1189)       619.2  Rx         02C1  8  03 00 40 66 00 C0 29 00 
   1190)       619.6  Rx         0285  8  02 D3 00 00 00 00 AA 00 
   1191)       619.8  Rx         0288  8  03 93 06 58 A6 65 10 99 
   1192)       620.7  Rx         0129  8  0A 23 2E 20 00 20 FF 3F 
   1193)       620.9  Rx         038A  8  00 00 00 00 00 00 00 00 
   1194)       621.3  Rx         0132  8  6D 8E F7 FF 28 40 FF 0F 
   1195)       622.1  Rx         0228  8  03 0B 06 58 A6 65 10 B1 
   1196)       622.3  Rx         02E1  8  41 0C 03 FF DB 07 00 00 
   1197)       622.7  Rx         01FB  8  01 FE FF B7 6D 0B 00 00 
   1198)       623.2  Rx         0340  8  04 00 00 00 00 00 00 00 
   1199)       624.5  Rx         0123  8  00 00 12 12 D2 00 00 00 
   1200)       624.7  Rx         0263  8  02 00 00 00 F7 10 00 00 
   1201)       625.0  Rx         02B3  8  04 C0 C0 8E 8E 03 03 12 
   1202)       625.2  Rx         0381  8  05 00 00 00 00 00 00 00 
   1203)       625.5  Rx         078A  8  01 00 01 00 00 00 14 0D 
   1204)       625.7  Rx         03E2  8  00 00 00 00 00 00 00 04 
   1205)       625.9  Rx         07AA  8  03 6D F7 B1 05 F2 FF 00 
   1206)       626.8  Rx         03C9  8  01 D5 18 E9 38 98 00 05 
   1207)       627.0  Rx         013D  6  00 00 00 00 FF 00 
   1208)       627.6  Rx         06C8  8  01 00 00 00 00 00 00 00 
   1209)       629.7  Rx         023E  8  F4 01 3A ED FA FC BF 11 
   1210)       630.1  Rx         06E8  8  01 00 00 00 00 00 00 00 
   1211)       630.4  Rx         03A3  5  14 D0 00 00 08 
   1212)       630.7  Rx         0129  8  21 24 2E 20 01 20 FF 3F 
   1213)       631.2  Rx         02C1  8  04 CA 3F 03 E4 30 60 47 
   1214)       631.4  Rx         0132  8  70 8E F8 FF 26 40 FF 0F 
   1215)       631.7  Rx         0201  8  CE 00 00 19 18 18 9E 00 
   1216)       632.6  Rx         0272  8  09 80 63 00 00 00 00 00 
   1217)       633.1  Rx         0241  7  37 64 1C 0F 1E 5B 00 
   1218)       633.4  Rx         0545  8  28 00 3F E0 98 91 69 23 
   1219)       634.6  Rx         04E2  8  03 00 00 00 00 00 08 00 
   1220)       635.7  Rx         02A8  8  02 10 00 00 00 00 30 EC 
   1221)       636.5  Rx         020C  8  00 C0 37 1A 00 00 00 00 
   1222)       636.9  Rx         013D  6  00 00 00 00 FF 00 
   1223)       638.1  Rx         02E8  8  02 10 00 00 00 00 20 1C 
   1224)       638.9  Rx         02F9  8  84 FB 07 08 00 00 00 00 
   1225)       639.2  Rx         02E1  8  02 00 00 00 00 00 01 00 
   1226)       639.5  Rx         0243  8  FC 7F FF 5F 99 34 01 4C 
   1227)       640.7  Rx         0129  8  9B 25 2E 20 00 20 FF 3F 
   1228)       641.0  Rx         0227  8  00 00 00 00 4A 00 00 80 
   1229)       641.2  Rx         0247  8  3F 0E FF 00 00 00 00 00 
   1230)       641.4  Rx         0132  8  74 8E F8 FF 24 40 FF 0F 
   1231)       641.6  Rx         0249  4  E8 01 00 00 
   1232)       642.4  Rx         03E3  2  00 00 
   1233)       642.7  Rx         0282  8  A5 21 0C 18 64 02 40 2F 
   1234)       643.1  Rx         02F1  8  0F 55 19 96 99 93 39 28 
   1235)       643.4  Rx         02C1  8  05 00 00 00 00 00 00 00 
   1236)       643.6  Rx         0262  8  0B 00 D3 AC 00 B0 90 10 
   1237)       643.9  Rx         0428  6  00 00 10 10 00 00 
   1238)       644.5  Rx         0393  8  06 00 08 E9 07 C0 1E 20 
   1239)       644.8  Rx         03F9  8  00 00 00 00 00 00 00 00 
   1240)       645.1  Rx         039A  8  FF FE FE FE FE 00 00 00 
   1241)       645.3  Rx         0201  8  C8 04 1E 49 98 25 03 00 
   1242)       646.0  Rx         0448  6  00 00 10 10 00 00 
   1243)       646.8  Rx         013D  6  00 00 00 00 FF 00 
   1244)       648.5  Rx         04E3  8  03 00 00 00 00 00 08 00 
   1245)       650.1  Rx         07E8  8  0A F9 08 00 07 00 1F 00 
   1246)       650.7  Rx         0129  8  41 26 2E 20 00 20 FF 3F 
   1247)       650.9  Rx         0339  8  C0 E1 00 00 00 01 40 0F 
   1248)       651.1  Rx         039D  5  1E 62 F5 27 00 
   1249)       651.4  Rx         0132  8  73 8E F8 FF 29 40 FF 0F 
   1250)       651.6  Rx         0372  8  0A 05 43 D9 C6 AA 31 02 
   1251)       652.6  Rx         0422  6  70 00 10 00 00 00 
   1252)       652.9  Rx         03A2  8  53 05 00 00 00 00 00 00 
   1253)       653.2  Rx         03F5  8  00 00 00 00 00 00 00 00 
   1254)       654.4  Rx         02E3  7  03 00 00 53 C2 02 00 
   1255)       654.7  Rx         0263  8  03 00 00 00 00 00 00 00 
   1256)       655.2  Rx         02C1  8  06 00 00 00 40 00 00 00 
   1257)       656.1  Rx         02E1  8  03 6D 99 02 9F 5F 00 00 
   1258)       656.7  Rx         0719  1  10 
   1259)       656.9  Rx         013D  6  00 00 00 00 FF 00 
   1260)       658.2  Rx         0221  8  20 41 09 1A 00 50 51 48 
   1261)       659.1  Rx         0201  8  C9 64 64 FF FF 17 9E 00 
   1262)       660.5  Rx         0343  8  00 90 64 BE 96 00 00 00 
   1263)       660.7  Rx         0129  8  56 27 2E 20 00 20 FF 3F 
   1264)       661.3  Rx         0132  8  74 8E F8 FF 27 40 FF 0F 
   1265)       661.6  Rx         02C2  8  00 00 00 97 01 00 C0 65 
   1266)       662.6  Rx         02E2  8  01 00 00 65 C2 02 00 00 
   1267)       662.8  Rx         01F9  1  00 
   1268)       663.0  Rx         03C2  8  29 55 00 00 00 00 00 00 
   1269)       663.1  Rx         02D1  2  FF 01 
   1270)       666.5  Rx         03C3  7  55 55 55 00 00 A2 00 
   1271)       666.9  Rx         013D  6  00 00 00 00 FF 00 
   1272)       667.2  Rx         02C1  8  07 00 00 00 00 00 00 00 
   1273)       667.4  Rx         0113  3  01 97 01 
   1274)       667.7  Rx         07FF  8  03 07 08 48 61 42 00 12 
   1275)       667.9  Rx         0318  8  15 05 09 06 03 2E 1D 92 
   1276)       668.1  Rx         0458  7  00 00 10 00 00 00 00 
   1277)       668.4  Rx         0381  8  E6 7F FF AF 05 21 00 00 
   1278)       668.6  Rx         0313  8  02 64 64 01 00 00 F0 D1 
   1279)       668.9  Rx         0439  8  02 04 10 00 00 00 00 00 
   1280)       669.5  Rx         0243  8  01 FC 37 FF 36 FF 76 76 
   1281)       669.7  Rx         0207  8  00 00 00 00 00 00 00 00 
   1282)       669.9  Rx         023E  8  F4 01 3A ED FA FC CF 21 
   1283)       670.5  Rx         0285  8  03 60 87 40 85 00 00 00 
   1284)       670.7  Rx         0129  8  2C 28 2E 20 01 20 FF 3F 
   1285)       671.3  Rx         0132  8  76 8E F7 FF 24 40 FF 0F 
   1286)       671.5  Rx         01FA  3  22 C0 01 
   1287)       672.4  Rx         0383  8  9F 00 1E 00 91 00 62 28 
   1288)       672.7  Rx         01FB  8  F0 FF FF FF FF FF FF FF 
   1289)       673.2  Rx         0421  7  00 0A 00 10 00 00 00 
   1290)       673.4  Rx         0201  8  E2 54 20 C0 04 F8 7C 09 
   1291)       673.6  Rx         02E1  8  44 0D 00 20 11 03 ED FF 
   1292)       674.7  Rx         0119  2  00 00 
   1293)       675.0  Rx         039A  8  FE FE FE FE FE FE FE 00 
   1294)       676.8  Rx         013D  6  00 00 00 00 FF 00 
   1295)       678.0  Rx         02D2  8  30 2F B7 4E 00 00 A1 01 
   1296)       678.2  Rx         0212  8  98 04 1E 0D 02 FF 3F 02 
   1297)       678.5  Rx         0252  8  00 00 BC 06 00 00 00 00 
   1298)       678.7  Rx         0292  8  11 D6 87 A1 85 0A FB 01 
   1299)       678.8  Rx         02F2  2  12 01 
   1300)       679.1  Rx         0401  8  15 2A 6C 94 6C 94 6A 94 
   1301)       679.3  Rx         02C1  8  60 49 3C 0A 91 1F 00 00 
   1302)       679.5  Rx         0423  6  00 00 10 00 00 00 
   1303)       680.5  Rx         0242  2  20 45 
   1304)       680.8  Rx         0129  8  D4 29 2E 20 00 20 FF 3F 
   1305)       681.3  Rx         0132  8  76 8E F8 FF 28 40 FF 0F 
   1306)       682.6  Rx         0272  8  06 00 03 E1 07 C0 1E 20 
   1307)       683.2  Rx         03A1  8  C5 42 31 C5 08 14 C2 7F 
   1308)       683.4  Rx         0545  8  03 19 64 32 19 00 70 85 
   1309)       684.5  Rx         02C3  8  00 00 00 27 01 00 C0 65 
   1310)       684.7  Rx         0263  8  00 B1 51 DC FA 7D 17 FA 
   1311)       686.7  Rx         041D  1  00 
   1312)       687.1  Rx         021D  8  04 00 04 00 00 00 00 00 
   1313)       687.3  Rx         0201  8  CB 00 00 19 18 18 9E 00 
   1314)       687.5  Rx         043D  6  00 00 00 00 FF 00 
   1315)       687.8  Rx         013D  6  00 00 00 00 FF 00 
   1316)       688.0  Rx         025D  8  C4 48 01 B9 40 61 01 C0 
   1317)       688.2  Rx         075D  8  08 82 AB 6D AB AD AB 02 
   1318)       688.4  Rx         027D  8  00 00 00 00 00 00 00 00 
   1319)       688.7  Rx         029D  4  00 00 00 20 
   1320)       689.3  Rx         02BD  4  00 00 00 00 
   1321)       689.6  Rx         0360  8  04 00 00 00 00 00 00 00 
   1322)       689.8  Rx         077D  3  11 00 00 
   1323)       689.9  Rx         07DD  2  FF 00 
   1324)       690.2  Rx         02E1  8  FD 1B 81 49 97 7F 09 00 
   1325)       690.7  Rx         0129  8  0B 2A 2E 20 00 20 FF 3F 
   1326)       690.9  Rx         0379  8  04 C0 06 19 00 00 00 00 
   1327)       691.1  Rx         0229  3  6D 03 00 
   1328)       691.3  Rx         0132  8  73 8E F8 FF 29 40 FF 0F 
   1329)       691.5  Rx         0249  4  2A 02 00 00 
   1330)       691.7  Rx         02C1  8  01 0E 4B 1C 32 00 64 00 
   1331)       691.9  Rx         039D  5  1F 63 F5 27 00 
   1332)       692.2  Rx         054F  8  00 00 00 00 00 00 00 00 
   1333)       692.6  Rx         0282  8  08 00 00 00 F0 F3 F3 24 
   1334)       692.9  Rx         02C4  8  01 00 01 D2 00 00 00 00 
   1335)       693.1  Rx         0204  8  01 00 00 FF 00 00 00 00 
   1336)       693.4  Rx         0261  8  81 19 C8 0C EB 7F E5 FF 
   1337)       693.6  Rx         0224  8  04 08 00 40 19 01 10 08 
   1338)       693.8  Rx         0264  6  39 00 00 00 E0 01 
   1339)       694.0  Rx         02B4  5  53 E9 26 BE 00 
   1340)       694.5  Rx         0393  8  09 80 63 00 00 00 00 00 
   1341)       694.7  Rx         0287  8  34 38 33 35 DA 02 00 00 
   1342)       696.7  Rx         0139  1  00 
   1343)       696.9  Rx         013D  6  00 00 00 00 FF 00 
   1344)       698.6  Rx         0102  8  22 33 00 00 C2 0E A1 09 
   1345)       699.5  Rx         0243  8  FE FF 23 0F 00 00 00 00 
   1346)       700.3  Rx         0225  3  11 06 32 
   1347)       700.7  Rx         0129  8  FA 2B 2E 20 00 20 FF 3F 
   1348)       701.2  Rx         0201  8  CC 00 00 19 18 18 9E 00 
   1349)       701.4  Rx         0132  8  70 8E F7 FF 26 40 FF 0F 
   1350)       702.7  Rx         03A2  8  00 E0 F2 B7 04 00 C2 70 
   1351)       702.9  Rx         03DA  8  00 00 00 00 00 00 00 00 
   1352)       703.2  Rx         02C1  8  12 A5 41 41 00 10 03 00 
   1353)       703.7  Rx         03C8  8  05 00 00 00 00 00 00 00 
   1354)       704.9  Rx         039A  8  FF FE FE FE FE 00 00 00 
   1355)       705.1  Rx         0419  1  00 
   1356)       706.1  Rx         03E8  8  05 00 00 00 00 00 00 00 
   1357)       706.4  Rx         0283  6  00 00 00 00 40 00 
   1358)       706.9  Rx         013D  6  00 00 00 00 FF 00 
   1359)       707.2  Rx         02E1  8  10 21 04 BE 16 84 00 06 
   1360)       707.6  Rx         0122  6  00 00 12 12 D2 00 
   1361)       707.9  Rx         0409  1  20 
   1362)       708.2  Rx         0221  8  21 01 55 00 00 00 60 FA 
   1363)       708.8  Rx         037A  8  01 00 00 00 00 00 00 00 
   1364)       709.7  Rx         023E  8  F4 01 3A ED FA FC DF 31 
   1365)       709.9  Rx         022A  4  00 00 D9 16 
   1366)       710.7  Rx         0129  8  F3 2C 2E 20 FF 1F FF 3F 
   1367)       711.2  Rx         0381  8  07 00 00 00 00 00 00 00 
   1368)       711.4  Rx         0132  8  72 8E F8 FF 27 40 FF 0F 
   1369)       711.7  Rx         0788  8  0E 1F 13 05 00 00 00 00 
   1370)       712.5  Rx         03C0  8  03 00 00 00 00 00 00 00 
   1371)       712.7  Rx         0382  5  2E 13 1A 00 00 
   1372)       712.9  Rx         03C2  8  00 55 55 55 00 00 6A 06 
   1373)       713.1  Rx         0400  7  02 A0 69 BE EF FB 00 
   1374)       713.3  Rx         0281  6  00 00 FF 1F 00 00 
   1375)       714.1  Rx         07A8  8  E6 1E 13 F5 00 00 00 00 
   1376)       714.5  Rx         0263  8  01 B1 4E DD F9 7E 14 FA 
   1377)       714.7  Rx         02B3  8  45 01 E3 80 00 00 83 00 
   1378)       714.9  Rx         0359  8  0C 00 00 00 03 00 00 18 
   1379)       715.2  Rx         0201  8  CD 00 00 19 18 18 9E 00 
   1380)       715.4  Rx         02C1  8  03 00 40 66 00 C0 29 00 
   1381)       716.6  Rx         01F8  4  00 00 00 00 
   1382)       716.9  Rx         013D  6  00 00 00 00 FF 00 
   1383)       718.5  Rx         0103  8  22 33 00 00 80 08 21 32 
   1384)       718.9  Rx         0293  8  00 0C 15 00 55 04 FF 0E 
   1385)       719.1  Rx         0253  7  64 87 4E 64 7F C8 03 
   1386)       719.4  Rx         0307  8  00 00 00 00 00 00 00 3C 
   1387)       719.7  Rx         0288  8  03 93 06 58 A6 65 20 A9 
   1388)       720.7  Rx         0129  8  88 2D 2E 20 00 20 FF 3F 
   1389)       721.0  Rx         038A  8  01 00 00 00 00 00 00 00 
   1390)       721.3  Rx         0132  8  73 8E F8 FF 28 40 FF 0F 
   1391)       721.5  Rx         0372  8  0B 1A CB 18 1A D3 18 FD 
   1392)       722.1  Rx         0228  8  03 0B 06 58 A6 65 20 C1 
   1393)       722.6  Rx         01FB  8  01 FE FF B7 6D 0B 00 00 
   1394)       723.2  Rx         0340  8  05 00 00 00 00 00 00 00 
   1395)       724.2  Rx         02E1  8  41 0C 03 FF DB 07 00 00 
   1396)       724.5  Rx         0123  8  00 00 12 12 D2 00 00 00 
   1397)       725.1  Rx         077A  8  01 00 18 5D 3C 5D 24 5D 
   1398)       725.6  Rx         03E2  8  00 00 00 00 00 00 00 04 
   1399)       725.9  Rx         07AA  8  04 00 0F C0 00 25 00 00 
   1400)       726.1  Rx         078A  8  01 00 02 00 00 00 24 5D 
   1401)       726.8  Rx         013D  6  00 00 00 00 FF 00 
   1402)       727.1  Rx         02C1  8  04 CA 3F 03 E4 30 60 47 
   1403)       727.7  Rx         06C8  8  DC 0B 00 FC 01 00 00 00 
   1404)       729.1  Rx         0201  8  CE 00 00 19 18 18 9E 00 
   1405)       729.4  Rx         0243  8  FC 7F FF 5F 99 34 01 4C 
   1406)       730.1  Rx         06E8  8  D8 0B 00 FB 01 00 00 00 
   1407)       730.4  Rx         03A3  5  12 D0 00 00 08 
   1408)       730.7  Rx         0129  8  57 2E 2E 20 00 20 FF 3F 
   1409)       730.9  Rx         039D  5  20 64 F5 27 00 
   1410)       731.3  Rx         0132  8  76 8E F8 FF 27 40 FF 0F 
   1411)       732.6  Rx         0272  8  09 80 63 00 00 00 00 00 
   1412)       733.1  Rx         0241  7  37 64 5C 0F 1E 5B 00 
   1413)       733.4  Rx         0545  8  28 00 3F F0 98 92 89 54 
   1414)       734.7  Rx         04E2  8  04 00 57 00 45 00 00 00 
   1415)       734.9  Rx         043B  8  00 7F 00 FF 00 00 00 00 
   1416)       735.1  Rx         034A  8  02 07 00 00 00 00 00 80 
   1417)       735.4  Rx         039A  8  FE FE FE FE FE FE FE 00 
   1418)       735.7  Rx         02A8  8  02 10 00 00 00 00 40 FC 
   1419)       736.5  Rx         020C  8  00 C0 37 1A 00 00 00 00 
   1420)       736.9  Rx         013D  6  00 00 00 00 FF 00 
   1421)       738.1  Rx         02E8  8  02 10 00 00 00 00 30 2C 
   1422)       738.9  Rx         02F9  8  84 FB 07 10 00 00 00 00 
   1423)       739.2  Rx         02C1  8  05 00 00 00 00 00 00 00 
   1424)       740.7  Rx         0129  8  A6 2F 2E 20 00 20 FF 3F 
   1425)       740.9  Rx         0249  4  D3 03 00 00 
   1426)       741.1  Rx         0227  8  00 00 00 00 4A 00 00 80 
   1427)       741.3  Rx         0132  8  6E 8E F7 FF 28 40 FF 0F 
   1428)       741.6  Rx         0247  8  3F 0E FF 00 00 00 00 00 
   1429)       741.8  Rx         02E1  8  02 00 00 00 00 00 01 00 
   1430)       742.4  Rx         03E3  2  00 00 
   1431)       742.7  Rx         0282  8  A5 21 0C 18 98 01 40 2F 
   1432)       743.1  Rx         02F1  8  10 00 00 E4 13 00 28 28 
   1433)       743.4  Rx         0201  8  C8 64 1E 49 94 25 03 00 
   1434)       743.6  Rx         0262  8  0B 00 D3 AC 00 B0 90 10 
   1435)       743.8  Rx         0428  6  00 00 10 10 00 00 
   1436)       744.3  Rx         0345  8  0B 00 03 03 03 00 00 00 
   1437)       744.5  Rx         0263  8  02 00 00 00 F7 10 00 00 
   1438)       744.7  Rx         0323  5  30 14 1A 00 00 
   1439)       744.9  Rx         0393  8  06 00 07 E9 07 C0 1E 20 
   1440)       745.2  Rx         03F9  8  01 00 00 00 00 00 00 00 
   1441)       746.0  Rx         0448  6  00 00 10 10 00 00 
   1442)       746.9  Rx         013D  6  00 00 00 00 FF 00 
   1443)       748.5  Rx         04E3  8  04 00 21 00 39 00 00 00 
   1444)       749.7  Rx         023E  8  F4 01 3A ED FA FC EF 41 
   1445)       750.7  Rx         0129  8  43 20 2E 20 00 20 FF 3F 
   1446)       750.9  Rx         0339  8  C0 E1 00 00 00 01 40 0F 
   1447)       751.2  Rx         02C1  8  06 00 00 00 40 00 00 00 
   1448)       751.4  Rx         0132  8  74 8E F8 FF 28 40 FF 0F 
   1449)       752.6  Rx         0422  6  70 00 10 00 00 00 
   1450)       752.8  Rx         03A2  8  53 05 00 00 00 00 00 00 
   1451)       753.2  Rx         03F5  8  00 00 00 00 00 00 00 00 
   1452)       754.1  Rx         0381  8  08 00 00 00 00 00 00 00 
   1453)       754.4  Rx         02E3  7  34 1F 4A 2A A9 04 00 
   1454)       756.7  Rx         0387  8  FF FF FF FF FF FF 00 40 
   1455)       756.9  Rx         013D  6  00 00 00 00 FF 00 
   1456)       757.1  Rx         0201  8  C9 64 64 FF FF 17 9E 00 
   1457)       757.3  Rx         0719  1  10 
   1458)       758.2  Rx         02E1  8  03 6D 99 02 9F 5E 00 00 
   1459)       758.4  Rx         0221  8  20 41 09 1A 00 50 71 68 
   1460)       759.5  Rx         0243  8  01 FC 37 FF 36 FF 76 76 
   1461)       760.5  Rx         0343  8  00 90 64 CE 96 00 00 00 
   1462)       760.7  Rx         0129  8  54 21 2E 20 00 20 FF 3F 
   1463)       761.3  Rx         0132  8  71 8E F8 FF 28 40 FF 0F 
   1464)       761.6  Rx         02C2  8  55 5B A9 B6 02 00 92 00 
   1465)       762.6  Rx         03C2  8  29 55 00 00 00 00 00 00 
   1466)       762.8  Rx         01F9  1  00 
   1467)       763.1  Rx         02D1  2  FF 01 
   1468)       763.3  Rx         02C1  8  07 00 00 00 00 00 00 00 
   1469)       764.9  Rx         039A  8  FF FE FE FE FE 00 00 00 
   1470)       766.5  Rx         03C3  7  55 55 55 00 00 A2 00 
   1471)       766.9  Rx         013D  6  00 00 00 00 FF 00 
   1472)       767.4  Rx         0113  3  01 97 01 
   1473)       767.7  Rx         07FF  8  04 F7 19 76 5F 08 00 00 
   1474)       767.9  Rx         0318  8  15 05 09 06 03 2E 1F 94 
   1475)       768.1  Rx         0458  7  00 00 10 00 00 00 00 
   1476)       768.5  Rx         0213  2  50 65 
   1477)       768.8  Rx         0082  8  01 00 6F 0D A6 0E 6F 0D 
   1478)       769.0  Rx         0439  8  02 04 10 00 00 00 00 00 
   1479)       769.3  Rx         0207  8  00 00 00 00 00 00 00 00 
   1480)       769.5  Rx         0739  5  1E 06 16 00 00 
   1481)       770.7  Rx         0129  8  74 22 2E 20 FF 1F FF 3F 
   1482)       770.9  Rx         039D  5  21 65 F5 27 00 
   1483)       771.2  Rx         0201  8  E2 54 20 C0 04 F8 78 09 
   1484)       771.4  Rx         0132  8  75 8E F7 FF 23 40 FF 0F 
   1485)       771.6  Rx         01FA  3  22 C0 01 
   1486)       772.5  Rx         0383  8  9F 00 1E 00 91 00 62 28 
   1487)       772.7  Rx         01FB  8  F0 FF FF FF FF FF FF FF 
   1488)       773.1  Rx         0421  7  00 0A 00 10 00 00 00 
   1489)       774.5  Rx         0263  8  03 00 00 00 00 00 00 00 
   1490)       774.7  Rx         0119  2  00 00 
   1491)       775.1  Rx         02C1  8  60 49 3C 0A 91 1F 00 00 
   1492)       775.4  Rx         02E1  8  44 0D 00 20 11 03 ED FF 
   1493)       776.8  Rx         013D  6  00 00 00 00 FF 00 
   1494)       778.4  Rx         0423  6  00 00 10 00 00 00 
   1495)       779.0  Rx         02D2  8  30 2F B7 4E 00 00 A1 01 
   1496)       779.3  Rx         0212  8  98 04 1E 0D 02 FF 3F 02 
   1497)       779.5  Rx         0252  8  00 00 BC 06 00 00 00 00 
   1498)       779.7  Rx         0292  8  11 D6 87 A1 85 0A FB 01 
   1499)       779.9  Rx         02F2  2  12 01 
   1500)       780.5  Rx         0242  2  20 45 
   1501)       780.8  Rx         0129  8  0A 23 2E 20 00 20 FF 3F 
   1502)       781.3  Rx         0132  8  76 8E F8 FF 28 40 FF 0F 
   1503)       782.7  Rx         0272  8  06 00 03 D9 07 C0 1E 20 
   1504)       783.2  Rx         03A1  8  C5 42 31 C5 08 14 D2 8F 
   1505)       783.4  Rx         0545  8  03 19 64 32 19 00 90 A5 
   1506)       784.5  Rx         02C3  8  55 63 A8 B6 02 00 98 00 
   1507)       785.1  Rx         0201  8  CB 00 00 19 18 18 9E 00 
   1508)       786.9  Rx         033D  8  1A 29 0A BE 87 4A FA 98 
   1509)       787.0  Rx         041D  1  00 
   1510)       787.3  Rx         02C1  8  01 0E 4B 1C 32 00 64 00 
   1511)       787.5  Rx         037D  6  6B 6B FF FF F7 3F 
   1512)       787.7  Rx         013D  6  00 00 00 00 FF 00 
   1513)       787.9  Rx         021D  8  04 00 04 00 00 00 00 00 
   1514)       788.2  Rx         025D  8  C4 48 01 B9 40 61 01 C0 
   1515)       788.4  Rx         043D  6  00 00 00 00 FF 00 
   1516)       788.8  Rx         027D  8  00 00 00 00 00 00 00 00 
   1517)       789.3  Rx         029D  4  00 00 00 20 
   1518)       789.6  Rx         0243  8  FE FF 23 0F 00 00 00 00 
   1519)       789.8  Rx         023E  8  F4 01 3A ED FA FC FF 51 
   1520)       790.0  Rx         02BD  4  00 00 00 00 
   1521)       790.2  Rx         0360  8  05 00 00 00 00 00 00 00 
   1522)       790.4  Rx         077D  3  11 00 00 
   1523)       790.5  Rx         07DD  2  FF 00 
   1524)       790.8  Rx         0129  8  8C 24 2E 20 00 20 FF 3F 
   1525)       791.0  Rx         0379  8  05 E0 BE F1 36 00 00 00 
   1526)       791.1  Rx         0229  3  43 04 00 
   1527)       791.4  Rx         0132  8  7A 8E F7 FF 26 40 FF 0F 
   1528)       791.5  Rx         0249  4  D3 04 00 00 
   1529)       791.8  Rx         0372  8  0C 00 00 00 00 00 00 00 
   1530)       792.0  Rx         054F  8  00 00 00 00 00 00 00 00 
   1531)       792.3  Rx         02E1  8  FD 1B 80 49 97 7F 09 00 
   1532)       792.6  Rx         0282  8  08 00 00 00 F0 F3 F3 24 
   1533)       792.9  Rx         02C4  8  02 00 01 D2 00 00 00 00 
   1534)       793.1  Rx         0204  8  01 00 00 FF 00 00 00 00 
   1535)       793.4  Rx         0261  8  83 19 C8 0C EB 7F E4 FF 
   1536)       793.6  Rx         0224  8  04 08 00 40 19 01 10 08 
   1537)       793.8  Rx         0264  6  38 00 00 00 E0 01 
